Scan Rate:  1250
Scans Per Frame:  10
Total Scans:  12870
ZP: 0 	 TP: 0
Number of Channels:  8
Scaled:  No
Scale Factor:     	1	1	1	1	1	1	1	1
Offset:           	0	0	0	0	0	0	0	0
Color:           	255,0,0	0,255,0	0,0,255	255,255,0	255,0,255	0,255,255	255,128,0	128,255,0
Label:            	Channel0	Channel1	Channel2	Channel3	Channel4	Channel5	Channel6	Channel7
Units:            	Volts	Volts	Volts	Volts	Volts	Volts	Volts	Volts
Index      Time   	Ch.00	Ch.01	Ch.02	Ch.03	Ch.04	Ch.05	Ch.06	Ch.07
0      	0.0000000	-0.116389	-0.0693618	-0.158906	-0.117999	-0.0754817	-0.0880436	0.119068	0.0292013
1      	0.0008000	-0.11961	-0.067107	-0.158906	-0.119287	-0.0729049	-0.0877215	0.113592	0.0263023
2      	0.0016000	-0.117999	-0.0687175	-0.159872	-0.120576	-0.0706502	-0.0835342	0.105861	0.0243697
3      	0.0024000	-0.123475	-0.0693618	-0.161805	-0.120898	-0.070006	-0.0896541	0.098453	0.0208266
4      	0.0032000	-0.123153	-0.0709723	-0.161805	-0.124119	-0.0667849	-0.0899762	0.0904005	0.0176056
5      	0.0040000	-0.128306	-0.0725828	-0.164704	-0.126052	-0.067107	-0.0886878	0.0810596	0.0134183
6      	0.0048000	-0.124763	-0.0767701	-0.162771	-0.125085	-0.0693618	-0.0896541	0.0736512	0.00955308
7      	0.0056000	-0.126374	-0.0719386	-0.163093	-0.12734	-0.0642081	-0.089332	0.0678534	0.00439946
8      	0.0064000	-0.127018	-0.073227	-0.163415	-0.124441	-0.0642081	-0.0899762	0.0614114	-0.00365308
9      	0.0072000	-0.127984	-0.0770922	-0.162771	-0.133138	-0.0587324	-0.0919088	0.0562578	-0.0117056
10     	0.0080000	-0.127018	-0.0780585	-0.161483	-0.124763	-0.0577661	-0.0951299	0.0488494	-0.0191139
11     	0.0088000	-0.125729	-0.0745154	-0.161161	-0.123797	-0.0564777	-0.102538	0.0482052	-0.0316759
12     	0.0096000	-0.126374	-0.0770922	-0.160516	-0.124441	-0.054223	-0.105759	0.0478831	-0.0410168
13     	0.0104000	-0.125085	-0.0748375	-0.160516	-0.116066	-0.054223	-0.112845	0.0333886	-0.0500357
14     	0.0112000	-0.123475	-0.0745154	-0.157295	-0.111879	-0.0539009	-0.1151	0.0269465	-0.0567998
15     	0.0120000	-0.122831	-0.0738712	-0.152142	-0.120898	-0.0535788	-0.115744	0.0356433	-0.0613092
16     	0.0128000	-0.121864	-0.0741933	-0.154719	-0.119932	-0.0548672	-0.122186	0.0333886	-0.0625976
17     	0.0136000	-0.11961	-0.0712944	-0.153108	-0.118965	-0.0561556	-0.124763	0.0321002	-0.0722607
18     	0.0144000	-0.117999	-0.0738712	-0.15182	-0.118321	-0.0613092	-0.127662	0.0333886	-0.0677512
19     	0.0152000	-0.119932	-0.0735491	-0.150209	-0.12122	-0.0632418	-0.130883	0.0324223	-0.0674291
20     	0.0160000	-0.118321	-0.0748375	-0.148599	-0.119287	-0.0680733	-0.134426	0.0343549	-0.0703281
21     	0.0168000	-0.118965	-0.0758038	-0.147632	-0.11961	-0.0725828	-0.139902	0.0395085	-0.0687175
22     	0.0176000	-0.117999	-0.0683954	-0.148921	-0.121542	-0.0738712	-0.141835	0.04434	-0.0674291
23     	0.0184000	-0.117999	-0.0806353	-0.151498	-0.120576	-0.0867552	-0.139902	0.0501378	-0.0642081
24     	0.0192000	-0.120576	-0.076448	-0.152142	-0.124763	-0.0883657	-0.138291	0.056902	-0.0539009
25     	0.0200000	-0.117355	-0.0780585	-0.148599	-0.121864	-0.0825679	-0.13507	0.0607672	-0.054223
26     	0.0208000	-0.118965	-0.0806353	-0.152464	-0.123797	-0.0832121	-0.134426	0.069786	-0.0503578
27     	0.0216000	-0.118965	-0.079669	-0.152142	-0.125729	-0.0816016	-0.130239	0.0778386	-0.0471368
28     	0.0224000	-0.111235	-0.0790248	-0.152142	-0.124763	-0.0819237	-0.125085	0.0871795	-0.0377958
29     	0.0232000	-0.118643	-0.0803132	-0.150531	-0.12734	-0.0825679	-0.116389	0.0942657	-0.0374737
30     	0.0240000	-0.117999	-0.0799911	-0.151498	-0.125085	-0.0819237	-0.118643	0.102318	-0.031998
31     	0.0248000	-0.119932	-0.0780585	-0.151176	-0.126696	-0.0838563	-0.1151	0.106828	-0.0233013
32     	0.0256000	-0.117355	-0.0754817	-0.155041	-0.12734	-0.0857889	-0.112523	0.113914	-0.0149266
33     	0.0264000	-0.117033	-0.0758038	-0.15343	-0.126374	-0.0841784	-0.104149	0.115202	-0.00590779
34     	0.0272000	-0.115422	-0.0735491	-0.148921	-0.123475	-0.089332	-0.0973846	0.11939	0.00278895
35     	0.0280000	-0.117355	-0.0722607	-0.152142	-0.123797	-0.0896541	-0.095452	0.123255	0.0118078
36     	0.0288000	-0.116066	-0.0716165	-0.154397	-0.124119	-0.0902983	-0.0877215	0.12551	0.0198603
37     	0.0296000	-0.108014	-0.070006	-0.156007	-0.121542	-0.0906204	-0.08289	0.128731	0.0266244
38     	0.0304000	-0.117999	-0.0722607	-0.156329	-0.121864	-0.0870773	-0.0799911	0.127764	0.0330665
39     	0.0312000	-0.118965	-0.0729049	-0.15794	-0.123475	-0.08289	-0.0767701	0.130663	0.0388643
40     	0.0320000	-0.12122	-0.0703281	-0.160516	-0.120898	-0.0838563	-0.0780585	0.123899	0.0395085
41     	0.0328000	-0.120254	-0.0696839	-0.161805	-0.119932	-0.0825679	-0.0735491	0.122289	0.041119
42     	0.0336000	-0.123153	-0.0712944	-0.162449	-0.131205	-0.0803132	-0.0716165	0.114236	0.0430516
43     	0.0344000	-0.128306	-0.070006	-0.161161	-0.128306	-0.0806353	-0.073227	0.118423	0.0407969
44     	0.0352000	-0.122831	-0.0680733	-0.164704	-0.117355	-0.0809574	-0.0693618	0.107472	0.0407969
45     	0.0360000	-0.129917	-0.0709723	-0.167603	-0.120898	-0.0783806	-0.0661407	0.104251	0.0388643
46     	0.0368000	-0.127984	-0.073227	-0.163093	-0.121864	-0.0783806	-0.0706502	0.100064	0.037898
47     	0.0376000	-0.123797	-0.0777364	-0.163737	-0.121542	-0.0748375	-0.0696839	0.0923331	0.0369317
48     	0.0384000	-0.126052	-0.0722607	-0.162771	-0.122831	-0.070006	-0.0716165	0.0875016	0.0343549
49     	0.0392000	-0.120576	-0.0696839	-0.162127	-0.123475	-0.0661407	-0.0770922	0.0804154	0.0301676
50     	0.0400000	-0.120576	-0.0680733	-0.162449	-0.121542	-0.0645302	-0.0799911	0.0742954	0.0256581
51     	0.0408000	-0.119932	-0.0690397	-0.161161	-0.120254	-0.0593766	-0.0848226	0.0707523	0.0166393
52     	0.0416000	-0.118643	-0.0642081	-0.15955	-0.120898	-0.0632418	-0.089332	0.0636661	0.00923098
53     	0.0424000	-0.117999	-0.0645302	-0.160839	-0.121542	-0.0551893	-0.0964183	0.0604451	-0.00172047
54     	0.0432000	-0.118643	-0.0661407	-0.156651	-0.117999	-0.0567998	-0.0999614	0.0598009	-0.009773
55     	0.0440000	-0.117677	-0.0664628	-0.155363	-0.116066	-0.057444	-0.105115	0.0581904	-0.0204023
56     	0.0448000	-0.117355	-0.0654965	-0.151176	-0.115422	-0.0580882	-0.110591	0.0572241	-0.0290991
57     	0.0456000	-0.119287	-0.0674291	-0.151498	-0.113168	-0.0590545	-0.114778	0.0581904	-0.0365074
58     	0.0464000	-0.118321	-0.0677512	-0.150853	-0.112845	-0.0619534	-0.117677	0.0581904	-0.0435936
59     	0.0472000	-0.119287	-0.067107	-0.152142	-0.111235	-0.0635639	-0.117677	0.0588346	-0.0506799
60     	0.0480000	-0.119287	-0.0683954	-0.148921	-0.111879	-0.063886	-0.123797	0.0578683	-0.0584103
61     	0.0488000	-0.118643	-0.0712944	-0.149887	-0.11349	-0.0716165	-0.126052	0.0591567	-0.0654965
62     	0.0496000	-0.12122	-0.0719386	-0.149887	-0.117033	-0.0680733	-0.128951	0.0630219	-0.0719386
63     	0.0504000	-0.116711	-0.0725828	-0.148277	-0.115744	-0.0712944	-0.130561	0.0649545	-0.0745154
64     	0.0512000	-0.118643	-0.0751596	-0.150531	-0.118965	-0.0709723	-0.131527	0.0672092	-0.0793469
65     	0.0520000	-0.121542	-0.0761259	-0.1457	-0.119287	-0.0725828	-0.127662	0.0710744	-0.0803132
66     	0.0528000	-0.117355	-0.0770922	-0.150531	-0.121542	-0.073227	-0.137325	0.0736512	-0.079669
67     	0.0536000	-0.117999	-0.0799911	-0.151498	-0.13346	-0.0754817	-0.128628	0.0736512	-0.0777364
68     	0.0544000	-0.119287	-0.0812795	-0.152464	-0.125729	-0.0716165	-0.128306	0.0797712	-0.0754817
69     	0.0552000	-0.118643	-0.0838563	-0.152786	-0.126696	-0.0719386	-0.124763	0.0852469	-0.0683954
70     	0.0560000	-0.117355	-0.0819237	-0.155041	-0.131849	-0.0712944	-0.118965	0.0839585	-0.0645302
71     	0.0568000	-0.122831	-0.0854668	-0.157618	-0.131527	-0.0712944	-0.116711	0.0846027	-0.0580882
72     	0.0576000	-0.121864	-0.0867552	-0.15794	-0.130883	-0.0741933	-0.114778	0.0836364	-0.0529346
73     	0.0584000	-0.124119	-0.086111	-0.166636	-0.130561	-0.0770922	-0.106081	0.0842806	-0.0445599
74     	0.0592000	-0.122831	-0.0857889	-0.157295	-0.130561	-0.0822458	-0.109302	0.0858911	-0.0374737
75     	0.0600000	-0.120898	-0.0838563	-0.157295	-0.12734	-0.0848226	-0.106403	0.0852469	-0.0300654
76     	0.0608000	-0.121864	-0.0832121	-0.158584	-0.124441	-0.0886878	-0.102538	0.0875016	-0.0207244
77     	0.0616000	-0.123797	-0.0741933	-0.156973	-0.12734	-0.0941636	-0.0989951	0.0916889	-0.0110614
78     	0.0624000	-0.123475	-0.079669	-0.155685	-0.125407	-0.0922309	-0.0857889	0.0939436	-0.00333098
79     	0.0632000	-0.122508	-0.0780585	-0.156651	-0.126374	-0.0902983	-0.0880436	0.098453	0.00407735
80     	0.0640000	-0.119932	-0.0751596	-0.158906	-0.123153	-0.0906204	-0.0825679	0.10103	0.00923098
81     	0.0648000	-0.119932	-0.0745154	-0.155685	-0.119932	-0.0902983	-0.076448	0.0997414	0.0150288
82     	0.0656000	-0.103182	-0.0706502	-0.156973	-0.135393	-0.0886878	-0.0706502	0.0994193	0.0176056
83     	0.0664000	-0.115744	-0.0709723	-0.154719	-0.122186	-0.0857889	-0.0661407	0.100064	0.0211487
84     	0.0672000	-0.115422	-0.0687175	-0.156007	-0.114778	-0.0835342	-0.0603429	0.0936215	0.0259802
85     	0.0680000	-0.114456	-0.0683954	-0.155363	-0.119932	-0.0816016	-0.0577661	0.101674	0.0292013
86     	0.0688000	-0.111557	-0.0616313	-0.15794	-0.121542	-0.0761259	-0.0555114	0.101352	0.0340328
87     	0.0696000	-0.114134	-0.0677512	-0.158584	-0.120254	-0.0696839	-0.0526125	0.098453	0.0359654
88     	0.0704000	-0.114456	-0.0674291	-0.156973	-0.121542	-0.0687175	-0.0526125	0.0949099	0.0391864
89     	0.0712000	-0.114456	-0.0645302	-0.157295	-0.120576	-0.0632418	-0.0503578	0.0939436	0.037898
90     	0.0720000	-0.129273	-0.0658186	-0.158906	-0.121542	-0.0613092	-0.0539009	0.0907226	0.0369317
91     	0.0728000	-0.114778	-0.0790248	-0.157618	-0.118965	-0.0587324	-0.0539009	0.0894342	0.0372538
92     	0.0736000	-0.114778	-0.070006	-0.156973	-0.120576	-0.0561556	-0.0567998	0.0868574	0.0353212
93     	0.0744000	-0.1151	-0.0738712	-0.159228	-0.11961	-0.0452042	-0.0577661	0.0807375	0.0337107
94     	0.0752000	-0.116066	-0.0712944	-0.156973	-0.117033	-0.054223	-0.0629197	0.0788049	0.0295234
95     	0.0760000	-0.115744	-0.0693618	-0.157295	-0.12122	-0.0561556	-0.0645302	0.0765502	0.0250139
96     	0.0768000	-0.116066	-0.0696839	-0.158906	-0.11961	-0.0555114	-0.067107	0.0701081	0.0159951
97     	0.0776000	-0.117999	-0.0696839	-0.156973	-0.122186	-0.0555114	-0.0748375	0.0655987	0.00697627
98     	0.0784000	-0.117033	-0.0703281	-0.156651	-0.118321	-0.0561556	-0.0799911	0.0626998	0.000212139
99     	0.0792000	-0.117677	-0.0696839	-0.153108	-0.11961	-0.057444	-0.0867552	0.053681	-0.0142824
100    	0.0800000	-0.117355	-0.0735491	-0.154074	-0.119287	-0.0571219	-0.0899762	0.0527147	-0.0258781
101    	0.0808000	-0.117999	-0.0719386	-0.155041	-0.117999	-0.0590545	-0.0967404	0.0488494	-0.0348969
102    	0.0816000	-0.120576	-0.0735491	-0.153752	-0.116711	-0.0596987	-0.105759	0.0465947	-0.0435936
103    	0.0824000	-0.118965	-0.0748375	-0.143445	-0.118965	-0.0596987	-0.125407	0.0446621	-0.051002
104    	0.0832000	-0.12122	-0.0761259	-0.144411	-0.119287	-0.0619534	-0.118965	0.0424074	-0.057444
105    	0.0840000	-0.123153	-0.0783806	-0.154397	-0.120898	-0.0635639	-0.119287	0.0420853	-0.0635639
106    	0.0848000	-0.117999	-0.0787027	-0.151498	-0.117999	-0.0664628	-0.119932	0.0395085	-0.067107
107    	0.0856000	-0.124441	-0.0799911	-0.154719	-0.122508	-0.0709723	-0.121542	0.0391864	-0.0722607
108    	0.0864000	-0.122508	-0.0816016	-0.153752	-0.124119	-0.073227	-0.118643	0.0391864	-0.0754817
109    	0.0872000	-0.122186	-0.0825679	-0.154719	-0.124763	-0.0787027	-0.122508	0.0407969	-0.0725828
110    	0.0880000	-0.122508	-0.0835342	-0.154719	-0.125407	-0.0806353	-0.122831	0.0366096	-0.0758038
111    	0.0888000	-0.124119	-0.08289	-0.15343	-0.125407	-0.0841784	-0.121542	0.0491715	-0.073227
112    	0.0896000	-0.122831	-0.0848226	-0.153752	-0.125407	-0.0864331	-0.118965	0.0520705	-0.0709723
113    	0.0904000	-0.122508	-0.0832121	-0.153752	-0.124441	-0.0857889	-0.123153	0.0520705	-0.0696839
114    	0.0912000	-0.119287	-0.0819237	-0.153752	-0.126696	-0.0880436	-0.119932	0.0565799	-0.0664628
115    	0.0920000	-0.116711	-0.0816016	-0.15182	-0.125729	-0.0899762	-0.114456	0.063344	-0.0635639
116    	0.0928000	-0.120254	-0.0777364	-0.149565	-0.124763	-0.0928752	-0.109624	0.0617335	-0.0587324
117    	0.0936000	-0.117355	-0.0774143	-0.149887	-0.121864	-0.0873994	-0.103504	0.0607672	-0.0516462
118    	0.0944000	-0.123797	-0.0735491	-0.15343	-0.122508	-0.0873994	-0.098673	0.0639882	-0.0426273
119    	0.0952000	-0.116389	-0.0751596	-0.149887	-0.120254	-0.0867552	-0.0931973	0.069786	-0.035219
120    	0.0960000	-0.120898	-0.0741933	-0.150209	-0.118643	-0.0851447	-0.0890099	0.0733291	-0.0252339
121    	0.0968000	-0.115422	-0.0687175	-0.15182	-0.117355	-0.0864331	-0.0832121	0.0829922	-0.0152487
122    	0.0976000	-0.117033	-0.0696839	-0.154074	-0.115744	-0.0883657	-0.0809574	0.0839585	-0.00429728
123    	0.0984000	-0.117033	-0.0658186	-0.15182	-0.1151	-0.0867552	-0.0793469	0.0904005	0.00568786
124    	0.0992000	-0.117677	-0.0690397	-0.154719	-0.1151	-0.0857889	-0.0738712	0.0932994	0.0159951
125    	0.1000000	-0.117033	-0.0722607	-0.153108	-0.115744	-0.0838563	-0.0687175	0.0945878	0.0237255
126    	0.1008000	-0.117355	-0.0651744	-0.152786	-0.115744	-0.0848226	-0.0600208	0.0949099	0.0340328
127    	0.1016000	-0.117999	-0.0651744	-0.15794	-0.105759	-0.0832121	-0.0587324	0.0965204	0.0372538
128    	0.1024000	-0.1151	-0.0635639	-0.156973	-0.118965	-0.0803132	-0.0529346	0.0936215	0.0414411
129    	0.1032000	-0.117999	-0.067107	-0.156007	-0.119932	-0.0812795	-0.047781	0.0836364	0.04434
130    	0.1040000	-0.117355	-0.0667849	-0.163737	-0.11961	-0.0767701	-0.0452042	0.095232	0.0488494
131    	0.1048000	-0.119287	-0.063886	-0.15955	-0.121864	-0.0706502	-0.0555114	0.0987751	0.0511041
132    	0.1056000	-0.115744	-0.0661407	-0.161483	-0.122508	-0.0693618	-0.0458484	0.0990972	0.0527147
133    	0.1064000	-0.118321	-0.067107	-0.161161	-0.122508	-0.0648523	-0.0464926	0.100386	0.0523926
134    	0.1072000	-0.116389	-0.0677512	-0.161483	-0.123797	-0.063886	-0.0474589	0.10103	0.0527147
135    	0.1080000	-0.120254	-0.0690397	-0.158906	-0.123797	-0.0625976	-0.0526125	0.10103	0.0511041
136    	0.1088000	-0.112201	-0.0693618	-0.162127	-0.128628	-0.0616313	-0.0555114	0.0965204	0.0491715
137    	0.1096000	-0.119932	-0.0706502	-0.15955	-0.124763	-0.067107	-0.0600208	0.0942657	0.0462726
138    	0.1104000	-0.120576	-0.0735491	-0.162771	-0.123475	-0.0590545	-0.0658186	0.0900784	0.0391864
139    	0.1112000	-0.119932	-0.0725828	-0.162127	-0.124763	-0.0539009	-0.0687175	0.0871795	0.031456
140    	0.1120000	-0.120898	-0.0729049	-0.16406	-0.126374	-0.0545451	-0.0722607	0.0849248	0.0230813
141    	0.1128000	-0.121542	-0.0719386	-0.15955	-0.119932	-0.054223	-0.0748375	0.0797712	0.0105194
142    	0.1136000	-0.121864	-0.0735491	-0.158262	-0.130561	-0.0532567	-0.0806353	0.0794491	0.00150054
143    	0.1144000	-0.129917	-0.0738712	-0.158262	-0.112845	-0.0516462	-0.0854668	0.0717186	-0.0100951
144    	0.1152000	-0.122831	-0.0741933	-0.158262	-0.123797	-0.0516462	-0.0909425	0.0752617	-0.0207244
145    	0.1160000	-0.121864	-0.073227	-0.155685	-0.122831	-0.0535788	-0.098673	0.0668871	-0.0303875
146    	0.1168000	-0.120576	-0.070006	-0.155685	-0.121542	-0.0609871	-0.103182	0.0659208	-0.0397284
147    	0.1176000	-0.122831	-0.0761259	-0.152464	-0.120576	-0.0526125	-0.110269	0.0649545	-0.0500357
148    	0.1184000	-0.11961	-0.0812795	-0.154397	-0.123475	-0.0545451	-0.114778	0.0623777	-0.0577661
149    	0.1192000	-0.118643	-0.0780585	-0.140546	-0.123797	-0.0580882	-0.116066	0.0604451	-0.0654965
150    	0.1200000	-0.117999	-0.0816016	-0.151498	-0.124441	-0.0593766	-0.117677	0.0585125	-0.0709723
151    	0.1208000	-0.118965	-0.0822458	-0.15182	-0.125085	-0.0619534	-0.120576	0.0556136	-0.0735491
152    	0.1216000	-0.117677	-0.0877215	-0.151176	-0.126374	-0.0725828	-0.121542	0.0530368	-0.0787027
153    	0.1224000	-0.118643	-0.0816016	-0.149887	-0.125729	-0.0751596	-0.123153	0.0501378	-0.0799911
154    	0.1232000	-0.118643	-0.0825679	-0.150209	-0.124441	-0.076448	-0.124441	0.0501378	-0.0816016
155    	0.1240000	-0.118321	-0.0825679	-0.157618	-0.124119	-0.0758038	-0.124763	0.050782	-0.0825679
156    	0.1248000	-0.119287	-0.0822458	-0.148599	-0.123475	-0.0783806	-0.124441	0.0520705	-0.0816016
157    	0.1256000	-0.118321	-0.0812795	-0.149565	-0.123153	-0.0809574	-0.12122	0.0546473	-0.0806353
158    	0.1264000	-0.117999	-0.08289	-0.144411	-0.120254	-0.0845005	-0.123153	0.0530368	-0.0767701
159    	0.1272000	-0.125729	-0.0835342	-0.148277	-0.122508	-0.0870773	-0.116711	0.0575462	-0.0748375
160    	0.1280000	-0.117033	-0.0754817	-0.152464	-0.120898	-0.0816016	-0.112201	0.0588346	-0.0716165
161    	0.1288000	-0.125407	-0.0787027	-0.149565	-0.118643	-0.0816016	-0.112845	0.0620556	-0.0680733
162    	0.1296000	-0.116389	-0.0780585	-0.146666	-0.119932	-0.0780585	-0.116389	0.0639882	-0.0642081
163    	0.1304000	-0.117999	-0.0761259	-0.15182	-0.118321	-0.0790248	-0.110269	0.0688197	-0.0571219
164    	0.1312000	-0.120576	-0.0748375	-0.15182	-0.118643	-0.0751596	-0.105437	0.0710744	-0.0487473
165    	0.1320000	-0.116066	-0.073227	-0.152786	-0.118321	-0.0712944	-0.100606	0.0733291	-0.0374737
166    	0.1328000	-0.11961	-0.0729049	-0.152464	-0.116066	-0.0712944	-0.0957741	0.0762281	-0.0249118
167    	0.1336000	-0.117677	-0.0719386	-0.155363	-0.118965	-0.0677512	-0.0919088	0.0762281	-0.0123498
168    	0.1344000	-0.122186	-0.0725828	-0.15794	-0.130239	-0.0632418	-0.0857889	0.0817038	-0.00139837
169    	0.1352000	-0.122186	-0.0709723	-0.161483	-0.118321	-0.0625976	-0.0819237	0.0833143	0.00794257
170    	0.1360000	-0.123475	-0.0748375	-0.160194	-0.118643	-0.060665	-0.0745154	0.0878237	0.012452
171    	0.1368000	-0.123475	-0.0712944	-0.162771	-0.116711	-0.0539009	-0.0703281	0.0923331	0.0205045
172    	0.1376000	-0.122831	-0.0729049	-0.166314	-0.121542	-0.0667849	-0.0667849	0.0958762	0.0246918
173    	0.1384000	-0.123797	-0.0712944	-0.163093	-0.121542	-0.0609871	-0.0635639	0.0939436	0.0308118
174    	0.1392000	-0.124441	-0.0716165	-0.165026	-0.122508	-0.0616313	-0.0625976	0.100386	0.0366096
175    	0.1400000	-0.124441	-0.0690397	-0.164704	-0.120898	-0.0609871	-0.0625976	0.101674	0.0420853
176    	0.1408000	-0.124441	-0.0687175	-0.165348	-0.122508	-0.060665	-0.0619534	0.100708	0.0459505
177    	0.1416000	-0.121542	-0.0683954	-0.165026	-0.122508	-0.060665	-0.0651744	0.10103	0.0478831
178    	0.1424000	-0.120254	-0.070006	-0.165026	-0.124763	-0.0613092	-0.0664628	0.104251	0.0482052
179    	0.1432000	-0.118643	-0.0667849	-0.162127	-0.12122	-0.0587324	-0.0677512	0.101674	0.0462726
180    	0.1440000	-0.122186	-0.0667849	-0.165026	-0.117999	-0.0571219	-0.0703281	0.0955541	0.0433737
181    	0.1448000	-0.11961	-0.0667849	-0.157295	-0.120254	-0.0571219	-0.0693618	0.100708	0.0404748
182    	0.1456000	-0.116711	-0.0661407	-0.158262	-0.116711	-0.0555114	-0.0629197	0.101352	0.0349991
183    	0.1464000	-0.118965	-0.0642081	-0.162771	-0.117355	-0.054223	-0.0793469	0.10103	0.0279129
184    	0.1472000	-0.118321	-0.0664628	-0.15182	-0.117999	-0.0532567	-0.0812795	0.100064	0.022115
185    	0.1480000	-0.118643	-0.0667849	-0.155685	-0.116389	-0.0551893	-0.086111	0.0968425	0.0159951
186    	0.1488000	-0.116389	-0.067107	-0.155363	-0.1151	-0.0551893	-0.0925531	0.0936215	0.00826467
187    	0.1496000	-0.117677	-0.0687175	-0.153108	-0.11961	-0.0603429	-0.101572	0.0900784	0.00150054
188    	0.1504000	-0.118643	-0.0687175	-0.150853	-0.115744	-0.0613092	-0.105759	0.0881458	-0.0094509
189    	0.1512000	-0.130561	-0.0712944	-0.152786	-0.118643	-0.0777364	-0.113168	0.0839585	-0.0197581
190    	0.1520000	-0.121864	-0.0738712	-0.151176	-0.129273	-0.0680733	-0.113812	0.0800933	-0.0297433
191    	0.1528000	-0.119287	-0.0667849	-0.151176	-0.118321	-0.0709723	-0.122831	0.0784828	-0.0394063
