Scan Rate:  1250
Scans Per Frame:  10
Total Scans:  17600
ZP: 0 	 TP: 0
Number of Channels:  8
Scaled:  No
Scale Factor:     	1	1	1	1	1	1	1	1
Offset:           	0	0	0	0	0	0	0	0
Color:           	255,0,0	0,255,0	0,0,255	255,255,0	255,0,255	0,255,255	255,128,0	128,255,0
Label:            	Channel0	Channel1	Channel2	Channel3	Channel4	Channel5	Channel6	Channel7
Units:            	Volts	Volts	Volts	Volts	Volts	Volts	Volts	Volts
Index      Time   	Ch.00	Ch.01	Ch.02	Ch.03	Ch.04	Ch.05	Ch.06	Ch.07
0      	0.0000000	-0.131205	-0.0812795	-0.0220129	-0.119287	0.132274	-0.152464	-0.203034	-0.244585
1      	0.0008000	-0.129595	-0.0838563	-0.0165371	-0.116389	0.143547	-0.156651	-0.198524	-0.229768
2      	0.0016000	-0.128306	-0.08289	-0.0220129	-0.120254	0.142581	-0.156329	-0.190794	-0.220105
3      	0.0024000	-0.129273	-0.0948078	-0.0216908	-0.122831	0.155787	-0.155041	-0.179843	-0.204322
4      	0.0032000	-0.122508	-0.0851447	-0.0229792	-0.127018	0.157398	-0.148921	-0.168569	-0.184352
5      	0.0040000	-0.119932	-0.0848226	-0.0332864	-0.128306	0.152888	-0.143123	-0.154397	-0.161805
6      	0.0048000	-0.119287	-0.0870773	-0.0171813	-0.129595	0.149345	-0.137969	-0.137003	-0.13507
7      	0.0056000	-0.103827	-0.0880436	-0.0175034	-0.136037	0.137105	-0.111235	-0.120576	-0.109947
8      	0.0064000	-0.110591	-0.0838563	-0.0184697	-0.137325	0.128408	-0.0919088	-0.103504	-0.0819237
9      	0.0072000	-0.10737	-0.0867552	-0.0165371	-0.13958	0.11327	-0.070006	-0.0857889	-0.0529346
10     	0.0080000	-0.104471	-0.086111	-0.016215	-0.13958	0.0945878	-0.0452042	-0.0648523	-0.0245897
11     	0.0088000	-0.103827	-0.0857889	-0.0175034	-0.140546	0.0784828	-0.0178255	-0.0435936	0.00536576
12     	0.0096000	-0.103182	-0.0870773	-0.0155708	-0.140224	0.0530368	0.0111636	-0.0262002	0.0327444
13     	0.0104000	-0.0944857	-0.0877215	-0.0158929	-0.140224	0.0285571	0.0420853	-0.0084846	0.0591567
14     	0.0112000	-0.103182	-0.0883657	-0.016215	-0.150209	0.00536576	0.0720407	0.00729837	0.0858911
15     	0.0120000	-0.10125	-0.0877215	-0.0133161	-0.143767	-0.0175034	0.103607	0.0240476	0.111981
16     	0.0128000	-0.101572	-0.089332	-0.0117056	-0.142157	-0.0397284	0.132918	0.0369317	0.129375
17     	0.0136000	-0.100928	-0.0816016	-0.009773	-0.141835	-0.0616313	0.160941	0.0482052	0.148379
18     	0.0144000	-0.100606	-0.0873994	-0.0091288	-0.141512	-0.0774143	0.185742	0.0533589	0.164162
19     	0.0152000	-0.0973846	-0.0851447	-0.00751829	-0.140868	-0.0854668	0.20829	0.063344	0.177046
20     	0.0160000	-0.0970625	-0.0877215	-0.00655199	-0.146988	-0.103827	0.225683	0.066565	0.184132
21     	0.0168000	-0.0964183	-0.0857889	-0.00590779	-0.140868	-0.110913	0.245331	0.0704302	0.187997
22     	0.0176000	-0.0941636	-0.0822458	-0.000754165	-0.136359	-0.115744	0.259504	0.0681755	0.197338
23     	0.0184000	-0.0948078	-0.0806353	-0.00429728	-0.134104	-0.126052	0.269811	0.0662429	0.192185
24     	0.0192000	-0.0928752	-0.0725828	-0.00526358	-0.131527	-0.131205	0.273354	0.063344	0.184776
25     	0.0200000	-0.0957741	-0.0832121	-0.0197581	-0.130561	-0.132172	0.261758	0.0588346	0.175435
26     	0.0208000	-0.0967404	-0.0754817	-0.00333098	-0.128951	-0.129917	0.263369	0.0533589	0.161907
27     	0.0216000	-0.0957741	-0.0761259	-0.00655199	-0.122831	-0.128306	0.257893	0.0440179	0.145802
28     	0.0224000	-0.102216	-0.0751596	-0.00687409	-0.123153	-0.123153	0.244043	0.0308118	0.12712
29     	0.0232000	-0.104471	-0.073227	-0.0149266	-0.121864	-0.111557	0.224717	0.0240476	0.104573
30     	0.0240000	-0.107048	-0.0748375	-0.0094509	-0.119287	-0.0996393	0.20217	0.00182265	0.0813817
31     	0.0248000	-0.112523	-0.0741933	-0.0091288	-0.118965	-0.0835342	0.17769	-0.0133161	0.0575462
32     	0.0256000	-0.112845	-0.0738712	-0.0110614	-0.115422	-0.0658186	0.144191	-0.0284549	0.031456
33     	0.0264000	-0.118321	-0.0735491	-0.0178255	-0.112523	-0.0406947	0.121322	-0.0419831	0.00536576
34     	0.0272000	-0.117033	-0.0735491	-0.0175034	-0.116389	-0.0197581	0.0836364	-0.0609871	-0.0210465
35     	0.0280000	-0.110913	-0.076448	-0.019436	-0.111235	0.00311105	0.0511041	-0.0770922	-0.0464926
36     	0.0288000	-0.121864	-0.0738712	-0.0216908	-0.116389	0.0279129	0.0179277	-0.0925531	-0.070006
37     	0.0296000	-0.123475	-0.0693618	-0.0245897	-0.117355	0.0543252	-0.0139603	-0.105759	-0.0964183
38     	0.0304000	-0.125729	-0.0712944	-0.0265223	-0.116711	0.069786	-0.0487473	-0.120898	-0.118321
39     	0.0312000	-0.126052	-0.0719386	-0.0226571	-0.116066	0.0913668	-0.0790248	-0.13346	-0.139902
40     	0.0320000	-0.128306	-0.0745154	-0.0262002	-0.117033	0.112948	-0.10737	-0.146988	-0.160194
41     	0.0328000	-0.129273	-0.0725828	-0.0284549	-0.115744	0.122933	-0.131849	-0.154719	-0.175011
42     	0.0336000	-0.130883	-0.0738712	-0.0307096	-0.112523	0.138071	-0.150853	-0.163737	-0.189506
43     	0.0344000	-0.133138	-0.0690397	-0.0300654	-0.114778	0.150633	-0.167603	-0.171146	-0.19788
44     	0.0352000	-0.134748	-0.0738712	-0.0310317	-0.112845	0.160619	-0.178554	-0.174045	-0.20851
45     	0.0360000	-0.135715	-0.0748375	-0.031998	-0.114778	0.15933	-0.186285	-0.175333	-0.212053
46     	0.0368000	-0.136681	-0.076448	-0.0394063	-0.109624	0.158042	-0.190794	-0.171468	-0.214307
47     	0.0376000	-0.148599	-0.0741933	-0.0262002	-0.108336	0.152244	-0.188217	-0.170502	-0.212053
48     	0.0384000	-0.135715	-0.0735491	-0.0265223	-0.106726	0.141293	-0.182419	-0.158906	-0.207221
49     	0.0392000	-0.13507	-0.0725828	-0.0249118	-0.105115	0.127764	-0.170824	-0.152464	-0.198847
50     	0.0400000	-0.132816	-0.070006	-0.0229792	-0.103504	0.114236	-0.153752	-0.140546	-0.186285
51     	0.0408000	-0.130883	-0.0664628	-0.0207244	-0.102216	0.0978088	-0.136681	-0.128306	-0.168891
52     	0.0416000	-0.127662	-0.0667849	-0.0226571	-0.0996393	0.0781607	-0.110269	-0.11349	-0.148277
53     	0.0424000	-0.126374	-0.0609871	-0.0200802	-0.0977067	0.0585125	-0.0832121	-0.0973846	-0.126696
54     	0.0432000	-0.121864	-0.0619534	-0.0184697	-0.0977067	0.0391864	-0.0535788	-0.0790248	-0.103827
55     	0.0440000	-0.123475	-0.0613092	-0.0165371	-0.0960962	0.0182498	-0.0252339	-0.0590545	-0.0787027
56     	0.0448000	-0.123153	-0.0584103	-0.0184697	-0.0980288	-0.000432064	0.00826467	-0.0413389	-0.0529346
57     	0.0456000	-0.122508	-0.0535788	-0.019436	-0.0999614	-0.0268444	0.0385422	-0.0242676	-0.0245897
58     	0.0464000	-0.122186	-0.0632418	-0.0239455	-0.0993172	-0.051002	0.069786	-0.00333098	0.00311105
59     	0.0472000	-0.122831	-0.0593766	-0.0204023	-0.102216	-0.0729049	0.098453	0.0114857	0.0301676
60     	0.0480000	-0.121542	-0.0613092	-0.0187918	-0.114134	-0.0951299	0.128731	0.0246918	0.0572241
61     	0.0488000	-0.120576	-0.0609871	-0.0200802	-0.105437	-0.116389	0.155787	0.0382201	0.0807375
62     	0.0496000	-0.11961	-0.0625976	-0.0191139	-0.109302	-0.131849	0.178334	0.0427295	0.104573
63     	0.0504000	-0.118321	-0.0658186	-0.0197581	-0.111235	-0.143123	0.202814	0.056902	0.123899
64     	0.0512000	-0.116389	-0.0661407	-0.0210465	-0.11349	-0.161161	0.221818	0.0646324	0.150956
65     	0.0520000	-0.114778	-0.0667849	-0.0200802	-0.116711	-0.160839	0.237601	0.0704302	0.160296
66     	0.0528000	-0.114456	-0.067107	-0.0210465	-0.118965	-0.161483	0.258537	0.0759059	0.173503
67     	0.0536000	-0.114456	-0.0667849	-0.0200802	-0.115422	-0.160516	0.25435	0.0794491	0.183488
68     	0.0544000	-0.114456	-0.0693618	-0.0175034	-0.124119	-0.143767	0.25435	0.0813817	0.190252
69     	0.0552000	-0.111879	-0.0716165	-0.019436	-0.122831	-0.144089	0.255961	0.0807375	0.193151
70     	0.0560000	-0.109947	-0.0787027	-0.0200802	-0.126696	-0.130561	0.247908	0.0813817	0.193151
71     	0.0568000	-0.109624	-0.0725828	-0.0187918	-0.12734	-0.117677	0.238245	0.0765502	0.190896
72     	0.0576000	-0.112201	-0.076448	-0.0197581	-0.129917	-0.0989951	0.220207	0.0684976	0.180589
73     	0.0584000	-0.110591	-0.0790248	-0.0245897	-0.133138	-0.0767701	0.204746	0.0575462	0.167383
74     	0.0592000	-0.111879	-0.0816016	-0.0197581	-0.132494	-0.0561556	0.179623	0.0449842	0.154177
75     	0.0600000	-0.10125	-0.0835342	-0.0191139	-0.139258	-0.0313538	0.156109	0.0324223	0.138071
76     	0.0608000	-0.109624	-0.0832121	-0.0158929	-0.138614	-0.000754165	0.128408	0.0169614	0.118745
77     	0.0616000	-0.109624	-0.0845005	-0.0187918	-0.13958	0.0217929	0.100064	0.000212139	0.098453
78     	0.0624000	-0.109302	-0.0896541	-0.0204023	-0.138936	0.0472389	0.0675313	-0.0191139	0.0736512
79     	0.0632000	-0.0996393	-0.0906204	-0.016215	-0.143123	0.0598009	0.041119	-0.0336085	0.0488494
80     	0.0640000	-0.107692	-0.0925531	-0.0142824	-0.144089	0.0929773	0.0130962	-0.0526125	0.0217929
81     	0.0648000	-0.106081	-0.0922309	-0.0133161	-0.145056	0.112625	-0.0139603	-0.0709723	-0.00365308
82     	0.0656000	-0.113812	-0.0935194	-0.0120277	-0.135715	0.129697	-0.0390842	-0.0973846	-0.0300654
83     	0.0664000	-0.10125	-0.0931973	-0.0107393	-0.15182	0.141293	-0.0651744	-0.108014	-0.0564777
84     	0.0672000	-0.100606	-0.0906204	-0.0081625	-0.146988	0.157075	-0.0870773	-0.123475	-0.0812795
85     	0.0680000	-0.0983509	-0.0886878	-0.00365308	-0.143445	0.161585	-0.112201	-0.139902	-0.104149
86     	0.0688000	-0.0989951	-0.0906204	-0.00526358	-0.141835	0.170604	-0.127662	-0.155041	-0.129273
87     	0.0696000	-0.098673	-0.0883657	0.00343315	-0.138291	0.178656	-0.146022	-0.169535	-0.151498
88     	0.0704000	-0.100283	-0.0873994	0.000856342	-0.133782	0.173503	-0.159872	-0.18403	-0.173078
89     	0.0712000	-0.100606	-0.0870773	0.0166393	-0.127984	0.168027	-0.16406	-0.192727	-0.18564
90     	0.0720000	-0.100606	-0.0819237	0.00053424	-0.128306	0.157398	-0.166314	-0.195948	-0.199491
91     	0.0728000	-0.101894	-0.0803132	0.00182265	-0.126374	0.145802	-0.162127	-0.199169	-0.212375
92     	0.0736000	-0.10286	-0.0787027	0.00182265	-0.120576	0.121966	-0.148921	-0.194659	-0.220427
93     	0.0744000	-0.10737	-0.0825679	0.00053424	-0.118643	0.110371	-0.138614	-0.189506	-0.224615
94     	0.0752000	-0.109302	-0.0825679	-0.000432064	-0.116711	0.0913668	-0.118965	-0.182419	-0.225581
95     	0.0760000	-0.112845	-0.0822458	-0.00397518	-0.116066	0.0704302	-0.098673	-0.17179	-0.222038
96     	0.0768000	-0.110913	-0.08289	-0.000109962	-0.110913	0.0456284	-0.0758038	-0.160839	-0.214629
97     	0.0776000	-0.117355	-0.0864331	-0.00397518	-0.111557	0.0172835	-0.0532567	-0.148277	-0.20239
98     	0.0784000	-0.119932	-0.079669	-0.0091288	-0.110269	-0.00172047	-0.0281328	-0.13507	-0.186607
99     	0.0792000	-0.120898	-0.079669	-0.0107393	-0.109947	-0.0284549	-0.00107627	-0.117677	-0.166314
100    	0.0800000	-0.124119	-0.0783806	-0.00300887	-0.111557	-0.0500357	0.0263023	-0.109302	-0.141512
101    	0.0808000	-0.128951	-0.076448	-0.0149266	-0.110591	-0.0735491	0.056902	-0.0838563	-0.1151
102    	0.0816000	-0.127984	-0.0754817	-0.0175034	-0.107692	-0.0941636	0.079127	-0.0645302	-0.0867552
103    	0.0824000	-0.131205	-0.0758038	-0.0213687	-0.105759	-0.117033	0.111659	-0.0439157	-0.0567998
104    	0.0832000	-0.125729	-0.073227	-0.0239455	-0.105759	-0.132816	0.141615	-0.0242676	-0.0268444
105    	0.0840000	-0.137325	-0.0725828	-0.0268444	-0.106403	-0.146988	0.160941	-0.00429728	0.00697627
106    	0.0848000	-0.13958	-0.0712944	-0.0278107	-0.105115	-0.157618	0.181555	0.0147067	0.0359654
107    	0.0856000	-0.140868	-0.0687175	-0.0316759	-0.105759	-0.164382	0.197338	0.0301676	0.0681755
108    	0.0864000	-0.142157	-0.0667849	-0.0342527	-0.103182	-0.167603	0.209256	0.0440179	0.0965204
109    	0.0872000	-0.144411	-0.0667849	-0.0374737	-0.0999614	-0.163415	0.215376	0.0591567	0.121644
110    	0.0880000	-0.14119	-0.060665	-0.0368295	-0.0999614	-0.15794	0.219563	0.0749396	0.144514
111    	0.0888000	-0.140546	-0.0696839	-0.03844	-0.101894	-0.153752	0.219885	0.0858911	0.161263
112    	0.0896000	-0.137647	-0.041661	-0.0374737	-0.100606	-0.140868	0.215376	0.0974867	0.180267
113    	0.0904000	-0.137325	-0.051002	-0.03844	-0.0996393	-0.127984	0.207645	0.104251	0.188641
114    	0.0912000	-0.132494	-0.0500357	-0.0371516	-0.098673	-0.10737	0.199915	0.10876	0.201203
115    	0.0920000	-0.13346	-0.0474589	-0.0381179	-0.0996393	-0.0902983	0.183166	0.107794	0.205391
116    	0.0928000	-0.124441	-0.0452042	-0.0368295	-0.108014	-0.0696839	0.167705	0.104573	0.207001
117    	0.0936000	-0.121864	-0.0442378	-0.0365074	-0.106726	-0.0484252	0.148379	0.100064	0.204746
118    	0.0944000	-0.121542	-0.0426273	-0.0410168	-0.0977067	-0.0258781	0.12712	0.0942657	0.197982
119    	0.0952000	-0.124119	-0.0439157	-0.0336085	-0.10737	-0.00365308	0.102962	0.0826701	0.187353
120    	0.0960000	-0.117033	-0.0445599	-0.031998	-0.105759	0.0195382	0.0794491	0.069786	0.174469
121    	0.0968000	-0.122508	-0.0464926	-0.0294212	-0.109302	0.0427295	0.0562578	0.0546473	0.156753
122    	0.0976000	-0.113812	-0.0484252	-0.0361853	-0.110913	0.0668871	0.0385422	0.0372538	0.137427
123    	0.0984000	-0.112845	-0.0516462	-0.0252339	-0.113812	0.0894342	0.012452	0.0176056	0.114558
124    	0.0992000	-0.103827	-0.0558335	-0.0252339	-0.127018	0.110049	-0.0094509	0.00375525	0.0894342
125    	0.1000000	-0.110591	-0.051002	-0.0229792	-0.12122	0.121	-0.031998	-0.0294212	0.0594788
126    	0.1008000	-0.111557	-0.0584103	-0.0197581	-0.119932	0.139038	-0.0529346	-0.0539009	0.0327444
127    	0.1016000	-0.107048	-0.0703281	-0.0171813	-0.123797	0.152888	-0.0619534	-0.0780585	0.000212139
128    	0.1024000	-0.10737	-0.0738712	-0.0120277	-0.126696	0.162229	-0.089332	-0.100606	-0.0332864
129    	0.1032000	-0.103504	-0.0799911	-0.0094509	-0.131527	0.165128	-0.0983509	-0.122508	-0.0645302
130    	0.1040000	-0.104471	-0.079669	-0.00719619	-0.124763	0.16545	-0.111879	-0.141835	-0.095452
131    	0.1048000	-0.101572	-0.0857889	-0.00204257	-0.131205	0.159008	-0.118643	-0.160516	-0.125085
132    	0.1056000	-0.102216	-0.0877215	0.000212139	-0.130883	0.152244	-0.117999	-0.176944	-0.153108
133    	0.1064000	-0.0993172	-0.0928752	0.00246685	-0.133782	0.14097	-0.118643	-0.192727	-0.179843
134    	0.1072000	-0.101894	-0.0973846	0.00117844	-0.136037	0.123899	-0.117355	-0.208832	-0.203356
135    	0.1080000	-0.104471	-0.0999614	-0.00397518	-0.138291	0.106183	-0.1151	-0.219783	-0.222682
136    	0.1088000	-0.104149	-0.103504	0.00504366	-0.137969	0.0862132	-0.104471	-0.229124	-0.240398
137    	0.1096000	-0.118643	-0.107692	0.00472156	-0.136359	0.0646324	-0.0938415	-0.235244	-0.253282
138    	0.1104000	-0.110591	-0.108336	0.00568786	-0.136681	0.041119	-0.0745154	-0.237177	-0.261012
139    	0.1112000	-0.110591	-0.114778	0.00536576	-0.140224	0.0169614	-0.0593766	-0.235566	-0.262945
140    	0.1120000	-0.112845	-0.115422	0.00568786	-0.139902	-0.00655199	-0.0374737	-0.232345	-0.261334
141    	0.1128000	-0.108336	-0.1151	0.00311105	-0.140868	-0.028777	-0.0094509	-0.221394	-0.25457
142    	0.1136000	-0.116066	-0.117033	0.00343315	-0.14119	-0.0539009	0.0179277	-0.210442	-0.242652
143    	0.1144000	-0.117355	-0.116066	0.000856342	-0.144089	-0.0741933	0.0501378	-0.194659	-0.226869
144    	0.1152000	-0.115744	-0.114456	-0.00139837	-0.139902	-0.0935194	0.0794491	-0.175333	-0.207543
145    	0.1160000	-0.11349	-0.112201	-0.00107627	-0.138291	-0.110269	0.0990972	-0.156329	-0.183708
146    	0.1168000	-0.115422	-0.114134	-0.00461938	-0.137969	-0.115744	0.121	-0.136037	-0.155041
147    	0.1176000	-0.1151	-0.104793	-0.00333098	-0.137325	-0.134104	0.140648	-0.114134	-0.126052
148    	0.1184000	-0.114456	-0.101572	-0.00461938	-0.133782	-0.146022	0.15772	-0.0944857	-0.0977067
149    	0.1192000	-0.113812	-0.0951299	-0.00526358	-0.129917	-0.152142	0.173503	-0.0712944	-0.0632418
150    	0.1200000	-0.117677	-0.0906204	-0.0081625	-0.128306	-0.156007	0.18993	-0.0452042	-0.025556
151    	0.1208000	-0.114134	-0.0938415	-0.0104172	-0.125085	-0.155363	0.197338	-0.0213687	0.00504366
152    	0.1216000	-0.113812	-0.0799911	-0.0126719	-0.126374	-0.15182	0.205069	0.00794257	0.0401527
153    	0.1224000	-0.1151	-0.076448	-0.0142824	-0.116066	-0.146666	0.207323	0.0321002	0.0746175
154    	0.1232000	-0.106081	-0.0693618	-0.0149266	-0.120898	-0.139258	0.20829	0.0540031	0.109404
155    	0.1240000	-0.117033	-0.0622755	-0.0181476	-0.110591	-0.125729	0.204102	0.0752617	0.14097
156    	0.1248000	-0.114456	-0.0593766	-0.0300654	-0.107692	-0.112201	0.211833	0.0949099	0.16996
157    	0.1256000	-0.118965	-0.0545451	-0.0233013	-0.10737	-0.0948078	0.183166	0.105861	0.193795
158    	0.1264000	-0.113812	-0.0435936	-0.025556	-0.101572	-0.0735491	0.178656	0.114236	0.21441
159    	0.1272000	-0.11349	-0.0464926	-0.0200802	-0.101894	-0.0539009	0.162229	0.131307	0.229548
160    	0.1280000	-0.114456	-0.0471368	-0.0294212	-0.101894	-0.0323201	0.144191	0.129375	0.239211
161    	0.1288000	-0.111235	-0.0368295	-0.0374737	-0.103504	-0.0094509	0.139682	0.13324	0.243721
162    	0.1296000	-0.113812	-0.0339306	-0.0294212	-0.100928	0.0185719	0.119712	0.128731	0.243077
163    	0.1304000	-0.113168	-0.0332864	-0.0358632	-0.0999614	0.0382201	0.098453	0.122933	0.241788
164    	0.1312000	-0.114778	-0.0252339	-0.0377958	-0.0999614	0.0636661	0.0755838	0.114236	0.225039
165    	0.1320000	-0.117355	-0.0339306	-0.0313538	-0.101894	0.0784828	0.053681	0.10264	0.208934
166    	0.1328000	-0.134748	-0.0361853	-0.0423052	-0.0973846	0.0945878	0.0292013	0.08879	0.191862
167    	0.1336000	-0.12734	-0.041661	-0.0432715	-0.107048	0.106183	0.00762047	0.0694639	0.168027
168    	0.1344000	-0.12734	-0.0435936	-0.0461705	-0.104471	0.115847	-0.0142824	0.0488494	0.141937
169    	0.1352000	-0.128628	-0.0474589	-0.0419831	-0.0977067	0.123255	-0.0329643	0.0259802	0.111981
170    	0.1360000	-0.13346	-0.0545451	-0.0426273	-0.10737	0.129053	-0.0506799	0.00278895	0.0797712
171    	0.1368000	-0.125085	-0.0526125	-0.0429494	-0.108658	0.131952	-0.0645302	-0.0274886	0.0436958
172    	0.1376000	-0.140224	-0.0577661	-0.0419831	-0.108658	0.132596	-0.0729049	-0.0500357	0.00536576
173    	0.1384000	-0.135393	-0.060665	-0.0403726	-0.110269	0.130341	-0.0864331	-0.0738712	-0.0339306
174    	0.1392000	-0.134426	-0.0642081	-0.031998	-0.109947	0.123899	-0.0890099	-0.0993172	-0.0722607
175    	0.1400000	-0.134748	-0.0693618	-0.0342527	-0.110913	0.115202	-0.0925531	-0.121542	-0.110269
176    	0.1408000	-0.132816	-0.0716165	-0.0294212	-0.112523	0.105539	-0.0928752	-0.147632	-0.150531
177    	0.1416000	-0.131849	-0.0722607	-0.0258781	-0.111557	0.0862132	-0.0906204	-0.166958	-0.182097
178    	0.1424000	-0.129917	-0.0767701	-0.0210465	-0.124763	0.0681755	-0.0841784	-0.186285	-0.214307
179    	0.1432000	-0.127018	-0.0725828	-0.0181476	-0.1151	0.0456284	-0.0648523	-0.201101	-0.240398
180    	0.1440000	-0.131849	-0.0848226	-0.012994	-0.111557	0.015673	-0.057444	-0.213663	-0.261978
181    	0.1448000	-0.12734	-0.0906204	-0.00429728	-0.113812	0.00729837	-0.0455263	-0.220105	-0.277439
182    	0.1456000	-0.127662	-0.0919088	-0.00526358	-0.114134	-0.0110614	-0.031998	-0.227191	-0.286136
183    	0.1464000	-0.124763	-0.0922309	-0.00300887	-0.116066	-0.0310317	-0.0171813	-0.231057	-0.290645
184    	0.1472000	-0.123797	-0.0989951	-0.000754165	-0.117355	-0.0493915	-0.00172047	-0.233956	-0.288713
185    	0.1480000	-0.123153	-0.107692	0.00343315	-0.118643	-0.0651744	0.0134183	-0.229768	-0.281304
186    	0.1488000	-0.121542	-0.10286	0.0130962	-0.118965	-0.08289	0.025336	-0.223648	-0.270353
187    	0.1496000	-0.11961	-0.103827	0.00729837	-0.131527	-0.0977067	0.0520705	-0.212053	-0.254892
188    	0.1504000	-0.116066	-0.103182	0.00794257	-0.120576	-0.109624	0.0684976	-0.199491	-0.237177
189    	0.1512000	-0.115422	-0.102216	0.00890887	-0.124119	-0.118321	0.0871795	-0.184674	-0.215918
190    	0.1520000	-0.112201	-0.103827	0.00987518	-0.125085	-0.124763	0.104573	-0.169857	-0.189828
191    	0.1528000	-0.107692	-0.103827	0.0105194	-0.127018	-0.128306	0.115524	-0.15182	-0.160516
192    	0.1536000	-0.106403	-0.10125	-0.000109962	-0.130561	-0.130239	0.133562	-0.134104	-0.127018
193    	0.1544000	-0.103182	-0.0989951	0.00665417	-0.130883	-0.128306	0.139038	-0.110913	-0.0890099
