Scan Rate:  1250
Scans Per Frame:  10
Total Scans:  16270
ZP: 0 	 TP: 0
Number of Channels:  8
Scaled:  No
Scale Factor:     	1	1	1	1	1	1	1	1
Offset:           	0	0	0	0	0	0	0	0
Color:           	255,0,0	0,255,0	0,0,255	255,255,0	255,0,255	0,255,255	255,128,0	128,255,0
Label:            	Channel0	Channel1	Channel2	Channel3	Channel4	Channel5	Channel6	Channel7
Units:            	Volts	Volts	Volts	Volts	Volts	Volts	Volts	Volts
Index      Time   	Ch.00	Ch.01	Ch.02	Ch.03	Ch.04	Ch.05	Ch.06	Ch.07
0      	0.0000000	0.0108415	-0.0780585	-0.009773	-0.0967404	-0.149243	0.0337107	-0.260368	-0.281949
1      	0.0008000	0.0143846	-0.0867552	0.000212139	-0.0970625	-0.15182	0.00697627	-0.308361	-0.359575
2      	0.0016000	0.0153509	-0.0915867	0.00278895	-0.0960962	-0.156973	-0.025556	-0.345403	-0.429149
3      	0.0024000	0.0150288	-0.0951299	0.00729837	-0.0973846	-0.160194	-0.0461705	-0.372459	-0.489382
4      	0.0032000	0.0185719	-0.103827	0.0137404	-0.0964183	-0.168569	-0.0674291	-0.393074	-0.537053
5      	0.0040000	0.0179277	-0.101572	0.0166393	-0.0977067	-0.177588	-0.0864331	-0.399838	-0.57796
6      	0.0048000	0.0176056	-0.10737	0.0205045	-0.0989951	-0.172112	-0.102216	-0.398872	-0.611781
7      	0.0056000	0.0192161	-0.114456	0.0234034	-0.101572	-0.195625	-0.116066	-0.389208	-0.622088
8      	0.0064000	0.0208266	-0.117999	0.025336	-0.103182	-0.207221	-0.125085	-0.373103	-0.623698
9      	0.0072000	0.0185719	-0.119932	0.0256581	-0.107692	-0.213985	-0.132816	-0.343792	-0.613069
10     	0.0080000	0.00697627	-0.124119	0.025336	-0.109302	-0.223648	-0.136037	-0.310616	-0.588267
11     	0.0088000	0.0192161	-0.126052	0.022115	-0.117355	-0.231379	-0.134104	-0.265844	-0.553802
12     	0.0096000	0.0182498	-0.12734	0.0169614	-0.118643	-0.23621	-0.132172	-0.217206	-0.510641
13     	0.0104000	0.0163172	-0.129595	0.00923098	-0.123797	-0.24233	-0.12122	-0.165026	-0.45234
14     	0.0112000	0.0185719	-0.127662	0.00890887	-0.126374	-0.245551	-0.105437	-0.107692	-0.388564
15     	0.0120000	0.0134183	-0.120576	0.00472156	-0.134104	-0.242652	-0.0845005	-0.0474589	-0.317058
16     	0.0128000	0.0127741	-0.122831	0.00407735	-0.136359	-0.246518	-0.0587324	0.0114857	-0.235244
17     	0.0136000	0.0234034	-0.106403	-0.00268677	-0.138936	-0.24845	-0.0323201	0.0759059	-0.155685
18     	0.0144000	0.0237255	-0.116711	-0.00687409	-0.141835	-0.248772	0.000212139	0.137427	-0.0600208
19     	0.0152000	0.025336	-0.106081	-0.0133161	-0.143123	-0.245551	0.0340328	0.196372	0.0324223
20     	0.0160000	0.0272687	-0.100283	-0.0200802	-0.145056	-0.246518	0.0643103	0.261114	0.12551
21     	0.0168000	0.0288792	-0.095452	-0.0242676	-0.145378	-0.244907	0.10103	0.305242	0.214732
22     	0.0176000	0.028235	-0.0857889	-0.0316759	-0.1457	-0.241686	0.130663	0.351625	0.302021
23     	0.0184000	0.0301676	-0.0822458	-0.0400505	-0.144411	-0.232989	0.162229	0.392531	0.383191
24     	0.0192000	0.0321002	-0.0745154	-0.0403726	-0.143445	-0.231057	0.198949	0.42603	0.457274
25     	0.0200000	0.0327444	-0.0622755	-0.0345748	-0.140224	-0.226547	0.229226	0.456308	0.52266
26     	0.0208000	0.0263023	-0.0587324	-0.0432715	-0.137969	-0.220105	0.255961	0.472735	0.577418
27     	0.0216000	0.0275908	-0.0526125	-0.0519683	-0.118643	-0.211731	0.285272	0.485619	0.622512
28     	0.0224000	0.0279129	-0.0464926	-0.0613092	-0.128306	-0.205611	0.314261	0.487873	0.657299
29     	0.0232000	0.0304897	-0.0400505	-0.0577661	-0.125085	-0.202712	0.336486	0.48272	0.679524
30     	0.0240000	0.0311339	-0.0355411	-0.0587324	-0.121542	-0.194337	0.351303	0.469514	0.687898
31     	0.0248000	0.0333886	-0.0313538	-0.0587324	-0.120254	-0.190794	0.364509	0.451154	0.686288
32     	0.0256000	0.0304897	-0.0262002	-0.0577661	-0.1151	-0.184996	0.369018	0.425386	0.670505
33     	0.0264000	0.034677	-0.0229792	-0.0561556	-0.110913	-0.183064	0.370307	0.392209	0.644093
34     	0.0272000	0.0340328	-0.022335	-0.0535788	-0.108658	-0.176944	0.363542	0.355812	0.605762
35     	0.0280000	0.0353212	-0.0213687	-0.0506799	-0.106726	-0.173723	0.358067	0.305886	0.550361
36     	0.0288000	0.0362875	-0.0226571	-0.0481031	-0.098673	-0.17179	0.343572	0.25435	0.498503
37     	0.0296000	0.0327444	-0.0242676	-0.0397284	-0.100606	-0.168247	0.324568	0.20378	0.429895
38     	0.0304000	0.0340328	-0.0252339	-0.0381179	-0.0960962	-0.171468	0.302343	0.149667	0.352591
39     	0.0312000	0.0317781	-0.0342527	-0.044882	-0.0941636	-0.169857	0.273354	0.0926552	0.270777
40     	0.0320000	0.0292013	-0.0390842	-0.0278107	-0.0941636	-0.170502	0.243721	0.0385422	0.183166
41     	0.0328000	0.0269465	-0.044882	-0.0236234	-0.0909425	-0.175333	0.210222	-0.0149266	0.0932994
42     	0.0336000	0.0208266	-0.0535788	-0.0084846	-0.0919088	-0.17952	0.162229	-0.0693618	0.00182265
43     	0.0344000	0.0205045	-0.0616313	-0.0126719	-0.0919088	-0.183708	0.133884	-0.118643	-0.0896541
44     	0.0352000	0.015673	-0.0712944	-0.0110614	-0.0922309	-0.185962	0.0955541	-0.164704	-0.178232
45     	0.0360000	0.0134183	-0.0806353	-0.00751829	-0.0967404	-0.187895	0.0549694	-0.204644	-0.262623
46     	0.0368000	0.0118078	-0.101894	-0.00236467	-0.095452	-0.178876	0.0143846	-0.246195	-0.338316
47     	0.0376000	0.00955308	-0.0983509	-0.000754165	-0.101894	-0.191438	-0.0252339	-0.276473	-0.414977
48     	0.0384000	0.00794257	-0.108014	0.00278895	-0.105115	-0.19176	-0.0613092	-0.301597	-0.475532
49     	0.0392000	0.00826467	-0.113168	0.00568786	-0.107692	-0.194015	-0.0977067	-0.315447	-0.529001
50     	0.0400000	0.0166393	-0.119932	0.00858677	-0.112201	-0.206577	-0.124763	-0.324144	-0.571196
51     	0.0408000	0.00826467	-0.12734	0.00987518	-0.115422	-0.198202	-0.150531	-0.32511	-0.602762
52     	0.0416000	0.00729837	-0.130561	0.0105194	-0.120576	-0.204322	-0.172434	-0.320279	-0.617901
53     	0.0424000	0.00697627	-0.138291	0.0111636	-0.122186	-0.201745	-0.19176	-0.306428	-0.629496
54     	0.0432000	0.00858677	-0.139902	0.00762047	-0.128306	-0.213663	-0.19627	-0.283237	-0.617578
55     	0.0440000	0.00697627	-0.143445	0.0121299	-0.130561	-0.221072	-0.210442	-0.255536	-0.599219
56     	0.0448000	0.00600996	-0.142157	0.0111636	-0.132494	-0.224293	-0.208832	-0.221394	-0.565076
57     	0.0456000	0.00665417	-0.140868	0.00923098	-0.13507	-0.234922	-0.203034	-0.180809	-0.520304
58     	0.0464000	0.00729837	-0.139258	0.00600996	-0.134426	-0.230735	-0.188217	-0.141512	-0.46458
59     	0.0472000	0.00858677	-0.134748	-0.00172047	-0.133782	-0.232023	-0.166636	-0.0922309	-0.401126
60     	0.0480000	0.0130962	-0.133138	0.000212139	-0.137003	-0.23009	-0.143767	-0.0455263	-0.320601
61     	0.0488000	0.0121299	-0.131205	-0.00365308	-0.134748	-0.228158	-0.113812	0.00214475	-0.249739
62     	0.0496000	0.0163172	-0.120576	-0.00590779	-0.135393	-0.223648	-0.0806353	0.0588346	-0.165026
63     	0.0504000	0.0198603	-0.113168	-0.0094509	-0.132816	-0.229446	-0.0439157	0.101674	-0.0712944
64     	0.0512000	0.0224371	-0.101572	-0.0139603	-0.128951	-0.219783	-0.00300887	0.150956	0.0147067
65     	0.0520000	0.0250139	-0.0919088	-0.0213687	-0.130561	-0.216562	0.0395085	0.199271	0.109404
66     	0.0528000	0.0295234	-0.0816016	-0.0204023	-0.12734	-0.212697	0.085569	0.245009	0.198949
67     	0.0536000	0.0317781	-0.0703281	-0.025556	-0.125729	-0.212697	0.131952	0.285916	0.288815
68     	0.0544000	0.0359654	-0.0613092	-0.0197581	-0.123475	-0.212053	0.177368	0.319092	0.37385
69     	0.0552000	0.0391864	-0.0497136	-0.0345748	-0.119932	-0.211086	0.221818	0.351625	0.45051
70     	0.0560000	0.0414411	-0.0423052	-0.0377958	-0.117677	-0.212053	0.267234	0.376104	0.520406
71     	0.0568000	0.0430516	-0.0368295	-0.0410168	-0.107692	-0.205933	0.307497	0.395108	0.580316
72     	0.0576000	0.0430516	-0.0271665	-0.044882	-0.110269	-0.203678	0.341962	0.398651	0.626699
73     	0.0584000	0.04434	-0.022335	-0.0464926	-0.110591	-0.20239	0.372561	0.407348	0.66213
74     	0.0592000	0.0430516	-0.0123498	-0.0481031	-0.107048	-0.201101	0.397363	0.402839	0.684677
75     	0.0600000	0.0424074	-0.0158929	-0.0548672	-0.105437	-0.20239	0.422809	0.392854	0.696917
76     	0.0608000	0.0382201	-0.0139603	-0.0513241	-0.106403	-0.200779	0.429251	0.374172	0.699816
77     	0.0616000	0.0369317	-0.0146045	-0.0529346	-0.100283	-0.199491	0.435049	0.348726	0.689187
78     	0.0624000	0.0359654	-0.0175034	-0.0539009	-0.100606	-0.19788	0.438592	0.320703	0.666962
79     	0.0632000	0.0366096	-0.0175034	-0.0513241	-0.0996393	-0.198202	0.435049	0.289459	0.631853
80     	0.0640000	0.0327444	-0.0204023	-0.051002	-0.10125	-0.199813	0.425064	0.256283	0.584504
81     	0.0648000	0.0279129	-0.0220129	-0.0503578	-0.113168	-0.19788	0.408637	0.220852	0.527814
82     	0.0656000	0.0288792	-0.031998	-0.0468147	-0.10286	-0.198202	0.384479	0.179623	0.461139
83     	0.0664000	0.0256581	-0.0377958	-0.0429494	-0.101894	-0.196592	0.354524	0.137427	0.387056
84     	0.0672000	0.0243697	-0.0461705	-0.0406947	-0.107692	-0.194659	0.319415	0.095232	0.30653
85     	0.0680000	0.0227592	-0.0548672	-0.0394063	-0.110269	-0.196914	0.279474	0.0511041	0.221496
86     	0.0688000	0.0198603	-0.0654965	-0.0332864	-0.111557	-0.19176	0.237923	0.00600996	0.129375
87     	0.0696000	0.0182498	-0.0751596	-0.0290991	-0.114778	-0.195303	0.190252	-0.0381179	0.0388643
88     	0.0704000	0.015673	-0.0906204	-0.0252339	-0.118321	-0.195625	0.141937	-0.0777364	-0.0493915
89     	0.0712000	0.0121299	-0.0944857	-0.0178255	-0.122508	-0.196592	0.0945878	-0.114778	-0.136681
90     	0.0720000	0.0108415	-0.107048	-0.0155708	-0.122831	-0.197236	0.0440179	-0.14731	-0.218817
91     	0.0728000	0.00955308	-0.113168	-0.00590779	-0.124441	-0.196914	-0.00397518	-0.177266	-0.296765
92     	0.0736000	0.00826467	-0.121542	-0.00365308	-0.122831	-0.197236	-0.0548672	-0.203034	-0.369238
93     	0.0744000	0.00923098	-0.128306	-0.00461938	-0.129595	-0.198524	-0.0996393	-0.22397	-0.434947
94     	0.0752000	0.00214475	-0.132494	0.00504366	-0.120254	-0.201423	-0.140868	-0.248128	-0.490348
95     	0.0760000	0.00987518	-0.137969	0.0108415	-0.132494	-0.202068	-0.17952	-0.24845	-0.537053
96     	0.0768000	0.0114857	-0.144411	0.0150288	-0.132494	-0.192082	-0.20851	-0.257147	-0.571196
97     	0.0776000	0.0127741	-0.143767	0.0172835	-0.131527	-0.200779	-0.232345	-0.256503	-0.592777
98     	0.0784000	0.012452	-0.144733	0.022115	-0.135715	-0.198524	-0.247484	-0.251671	-0.605339
99     	0.0792000	0.0179277	-0.1457	0.0279129	-0.131205	-0.199813	-0.255214	-0.238787	-0.599219
100    	0.0800000	0.0192161	-0.142801	0.0272687	-0.130561	-0.198524	-0.256503	-0.224615	-0.583114
101    	0.0808000	0.0227592	-0.140224	0.0159951	-0.130561	-0.198847	-0.247806	-0.204	-0.55187
102    	0.0816000	0.022115	-0.135393	0.0279129	-0.12734	-0.196592	-0.230412	-0.17791	-0.51354
103    	0.0824000	0.0234034	-0.128951	0.0208266	-0.127018	-0.195303	-0.209154	-0.146344	-0.461359
104    	0.0832000	0.0259802	-0.124441	0.0159951	-0.125729	-0.195625	-0.181453	-0.11349	-0.400482
105    	0.0840000	0.0285571	-0.117355	0.0147067	-0.126374	-0.193049	-0.15182	-0.0725828	-0.32962
106    	0.0848000	0.0279129	-0.10737	0.00987518	-0.121542	-0.194337	-0.11349	-0.0371516	-0.255214
107    	0.0856000	0.0304897	-0.100606	0.00633206	-0.119287	-0.192404	-0.0748375	0.00214475	-0.170824
108    	0.0864000	0.0295234	-0.0925531	-0.00429728	-0.117033	-0.193371	-0.0303875	0.0395085	-0.086111
109    	0.0872000	0.0285571	-0.0819237	-0.00751829	-0.1151	-0.194659	0.0198603	0.079127	0.000856342
110    	0.0880000	0.0279129	-0.0738712	-0.0184697	-0.114456	-0.193693	0.0688197	0.115524	0.0881458
111    	0.0888000	0.031456	-0.0645302	-0.0213687	-0.110913	-0.196914	0.120034	0.154177	0.175757
112    	0.0896000	0.0295234	-0.0561556	-0.0297433	-0.10898	-0.196592	0.172214	0.187031	0.258537
113    	0.0904000	0.0308118	-0.0464926	-0.035219	-0.107692	-0.189183	0.225039	0.219241	0.340029
114    	0.0912000	0.0301676	-0.0400505	-0.0513241	-0.10737	-0.193693	0.27432	0.247586	0.4183
115    	0.0920000	0.022115	-0.0326422	-0.0490694	-0.106726	-0.19176	0.321025	0.273032	0.488196
116    	0.0928000	0.0285571	-0.0265223	-0.0526125	-0.103182	-0.192727	0.366441	0.292358	0.550361
117    	0.0936000	0.0288792	-0.0184697	-0.0593766	-0.105437	-0.194981	0.405738	0.306208	0.602541
118    	0.0944000	0.0263023	-0.0184697	-0.0635639	-0.0931973	-0.192727	0.440202	0.322313	0.645059
119    	0.0952000	0.0230813	-0.016215	-0.0658186	-0.102538	-0.19627	0.469192	0.321991	0.677591
120    	0.0960000	0.0211487	-0.0158929	-0.070006	-0.101894	-0.19788	0.491739	0.324568	0.697883
121    	0.0968000	0.0208266	-0.0146045	-0.0693618	-0.101894	-0.200779	0.500113	0.319092	0.701427
122    	0.0976000	0.018894	-0.0158929	-0.0693618	-0.102538	-0.20239	0.50108	0.311362	0.694018
123    	0.0984000	0.0176056	-0.0197581	-0.0703281	-0.104471	-0.211086	0.497536	0.295257	0.675658
124    	0.0992000	0.0192161	-0.0226571	-0.070006	-0.104793	-0.20851	0.48433	0.277863	0.641516
125    	0.1000000	0.0176056	-0.0271665	-0.0567998	-0.106726	-0.207865	0.455985	0.257571	0.595133
126    	0.1008000	0.0172835	-0.0345748	-0.0625976	-0.108336	-0.203678	0.436981	0.224073	0.540698
127    	0.1016000	0.0176056	-0.0390842	-0.0580882	-0.109947	-0.205611	0.407026	0.207645	0.472413
128    	0.1024000	0.0205045	-0.0458484	-0.0516462	-0.113812	-0.205611	0.363864	0.180267	0.400262
129    	0.1032000	0.0201824	-0.0548672	-0.0452042	-0.11349	-0.203034	0.31877	0.145158	0.32328
130    	0.1040000	0.0234034	-0.0622755	-0.0371516	-0.118643	-0.204	0.269489	0.114558	0.242432
131    	0.1048000	0.0250139	-0.0716165	-0.0303875	-0.118965	-0.203356	0.217308	0.0810596	0.160619
132    	0.1056000	0.0250139	-0.0886878	-0.0226571	-0.120254	-0.212053	0.163518	0.0446621	0.0752617
133    	0.1064000	0.0269465	-0.0931973	-0.0142824	-0.122508	-0.203678	0.10876	0.00987518	-0.009773
134    	0.1072000	0.0275908	-0.0941636	-0.00687409	-0.122831	-0.201745	0.0565799	-0.0252339	-0.0928752
135    	0.1080000	0.0279129	-0.105115	0.00439946	-0.124441	-0.201423	-0.00107627	-0.0587324	-0.17791
136    	0.1088000	0.0292013	-0.113168	0.00729837	-0.126696	-0.19788	-0.0487473	-0.0919088	-0.255214
137    	0.1096000	0.0292013	-0.11961	0.0140625	-0.128951	-0.194981	-0.0957741	-0.124441	-0.328331
138    	0.1104000	0.0308118	-0.126052	0.0140625	-0.128628	-0.190794	-0.136359	-0.151176	-0.392752
139    	0.1112000	0.0301676	-0.130239	0.028235	-0.128628	-0.188217	-0.174689	-0.175333	-0.449764
140    	0.1120000	0.0324223	-0.135393	0.025336	-0.129595	-0.192082	-0.206577	-0.19627	-0.495502
141    	0.1128000	0.0317781	-0.151176	0.0337107	-0.132172	-0.176299	-0.231057	-0.210764	-0.532222
142    	0.1136000	0.0317781	-0.141512	0.0349991	-0.131849	-0.180165	-0.251027	-0.222038	-0.555413
143    	0.1144000	0.0324223	-0.144733	0.0359654	-0.135715	-0.180165	-0.2623	-0.229446	-0.568619
144    	0.1152000	0.0324223	-0.143123	0.0349991	-0.133138	-0.176299	-0.265522	-0.22848	-0.570874
145    	0.1160000	0.0321002	-0.142479	0.0321002	-0.133138	-0.172756	-0.256825	-0.222682	-0.561855
146    	0.1168000	0.0311339	-0.139902	0.0301676	-0.13346	-0.172434	-0.235244	-0.213663	-0.539308
147    	0.1176000	0.0311339	-0.136681	0.0272687	-0.136681	-0.168569	-0.224615	-0.198847	-0.504843
148    	0.1184000	0.0330665	-0.132816	0.0237255	-0.134426	-0.168569	-0.197236	-0.185318	-0.459104
149    	0.1192000	0.0266244	-0.126696	0.0169614	-0.133138	-0.167603	-0.160839	-0.164382	-0.403381
150    	0.1200000	0.0263023	-0.120576	0.0127741	-0.131205	-0.170179	-0.120898	-0.138614	-0.335418
151    	0.1208000	0.0259802	-0.110591	0.00633206	-0.127662	-0.168891	-0.0770922	-0.112523	-0.265522
152    	0.1216000	0.022115	-0.109624	-0.00333098	-0.123475	-0.175011	-0.0294212	-0.0922309	-0.185318
153    	0.1224000	0.0234034	-0.0960962	-0.0107393	-0.125085	-0.173723	0.0227592	-0.0464926	-0.103182
154    	0.1232000	0.0185719	-0.0851447	-0.0181476	-0.121542	-0.17791	0.0759059	-0.0200802	-0.019436
155    	0.1240000	0.0182498	-0.0783806	-0.0258781	-0.117033	-0.175655	0.129375	0.0140625	0.0652766
156    	0.1248000	0.0176056	-0.070006	-0.0316759	-0.1151	-0.17791	0.182521	0.0488494	0.14709
157    	0.1256000	0.0166393	-0.0616313	-0.0400505	-0.111235	-0.178232	0.235668	0.082348	0.230837
158    	0.1264000	0.0150288	-0.0567998	-0.0481031	-0.110269	-0.177588	0.28656	0.117779	0.310074
159    	0.1272000	0.015673	-0.0452042	-0.0571219	-0.105759	-0.183708	0.335197	0.156431	0.385123
160    	0.1280000	0.015673	-0.0394063	-0.0577661	-0.105115	-0.188539	0.388988	0.181233	0.453087
161    	0.1288000	0.0182498	-0.0313538	-0.0619534	-0.115744	-0.194337	0.419266	0.211511	0.51493
162    	0.1296000	0.0166393	-0.0245897	-0.0648523	-0.101572	-0.197236	0.453731	0.237923	0.566788
163    	0.1304000	0.0134183	-0.0204023	-0.0664628	-0.102538	-0.204	0.479177	0.259826	0.609306
164    	0.1312000	0.0240476	-0.0171813	-0.0677512	-0.0912646	-0.212053	0.497536	0.279796	0.640872
165    	0.1320000	0.0214708	-0.0139603	-0.0680733	-0.098673	-0.219139	0.507522	0.291392	0.663096
166    	0.1328000	0.0227592	-0.0113835	-0.0677512	-0.0977067	-0.222038	0.508488	0.306208	0.669216
167    	0.1336000	0.0234034	-0.0133161	-0.0845005	-0.0980288	-0.228158	0.51493	0.312006	0.66664
168    	0.1344000	0.0172835	-0.0136382	-0.0619534	-0.0977067	-0.231057	0.487551	0.313617	0.645381
169    	0.1352000	0.028235	-0.0184697	-0.0703281	-0.0977067	-0.232667	0.467581	0.310718	0.625089
170    	0.1360000	0.0266244	-0.022335	-0.0529346	-0.0989951	-0.22848	0.436337	0.301055	0.589335
171    	0.1368000	0.0279129	-0.0262002	-0.0506799	-0.102216	-0.235566	0.403483	0.288171	0.543275
172    	0.1376000	0.0269465	-0.0332864	-0.0400505	-0.101894	-0.235566	0.364831	0.269811	0.488196
173    	0.1384000	0.028235	-0.0410168	-0.0374737	-0.101894	-0.237499	0.320381	0.249196	0.424097
174    	0.1392000	0.0279129	-0.0481031	-0.0300654	-0.105437	-0.24072	0.278508	0.224073	0.351303
175    	0.1400000	0.0263023	-0.0580882	-0.0249118	-0.102538	-0.235244	0.218597	0.19605	0.273676
176    	0.1408000	0.0295234	-0.0661407	-0.016215	-0.110269	-0.237499	0.164162	0.165772	0.192507
177    	0.1416000	0.0298455	-0.0735491	-0.0107393	-0.11349	-0.243941	0.108116	0.133562	0.106183
178    	0.1424000	0.0285571	-0.0851447	-0.00590779	-0.123153	-0.235888	0.0543252	0.098453	0.0205045
179    	0.1432000	0.0279129	-0.0832121	-0.00107627	-0.121542	-0.23009	-0.00397518	0.0610893	-0.0648523
180    	0.1440000	0.0169614	-0.106403	0.00504366	-0.122831	-0.221716	-0.0497136	0.0208266	-0.148277
181    	0.1448000	0.0237255	-0.112523	0.00890887	-0.124119	-0.213663	-0.0857889	-0.0175034	-0.227836
182    	0.1456000	0.028235	-0.124441	0.0105194	-0.130561	-0.207865	-0.143445	-0.0551893	-0.300308
183    	0.1464000	0.0269465	-0.127662	0.0176056	-0.134104	-0.199169	-0.176944	-0.0922309	-0.364407
184    	0.1472000	0.0240476	-0.13346	0.0295234	-0.130883	-0.192082	-0.207543	-0.126374	-0.422063
185    	0.1480000	0.0227592	-0.139258	0.018894	-0.138291	-0.18403	-0.227191	-0.155363	-0.471344
186    	0.1488000	0.018894	-0.142479	0.0195382	-0.140224	-0.172756	-0.24845	-0.183064	-0.506453
187    	0.1496000	0.0192161	-0.145056	0.0214708	-0.138614	-0.166314	-0.257791	-0.204966	-0.532544
188    	0.1504000	0.0176056	-0.146666	0.0211487	-0.140546	-0.157295	-0.260368	-0.227514	-0.548005
189    	0.1512000	0.0147067	-0.14731	0.018894	-0.140224	-0.141512	-0.253282	-0.243297	-0.554124
190    	0.1520000	0.0208266	-0.143445	0.0182498	-0.134426	-0.146344	-0.241364	-0.259079	-0.547038
191    	0.1528000	0.0166393	-0.148599	0.0140625	-0.137325	-0.13958	-0.218495	-0.258757	-0.536087
192    	0.1536000	0.0163172	-0.139902	0.0118078	-0.134748	-0.138614	-0.193693	-0.257147	-0.502266
193    	0.1544000	0.0166393	-0.131849	0.00858677	-0.132172	-0.145056	-0.15955	-0.250383	-0.456206
194    	0.1552000	0.0166393	-0.117677	0.00858677	-0.130239	-0.130561	-0.122831	-0.236532	-0.416265
195    	0.1560000	0.0163172	-0.117677	0.00053424	-0.126696	-0.137325	-0.0767701	-0.21624	-0.358931
196    	0.1568000	0.0182498	-0.109947	0.00923098	-0.124763	-0.13958	-0.0274886	-0.191116	-0.291612
