Scan Rate:  1250
Scans Per Frame:  10
Total Scans:  10490
ZP: 0 	 TP: 0
Number of Channels:  8
Scaled:  No
Scale Factor:     	1	1	1	1	1	1	1	1
Offset:           	0	0	0	0	0	0	0	0
Color:           	255,0,0	0,255,0	0,0,255	255,255,0	255,0,255	0,255,255	255,128,0	128,255,0
Label:            	Channel0	Channel1	Channel2	Channel3	Channel4	Channel5	Channel6	Channel7
Units:            	Volts	Volts	Volts	Volts	Volts	Volts	Volts	Volts
Index      Time   	Ch.00	Ch.01	Ch.02	Ch.03	Ch.04	Ch.05	Ch.06	Ch.07
0      	0.0000000	-0.0935194	-0.0632418	-0.182741	-0.106403	-0.0577661	0.289459	0.123899	0.300088
1      	0.0008000	-0.106403	-0.0603429	-0.189506	-0.105115	-0.0603429	0.327789	0.150311	0.366441
2      	0.0016000	-0.103182	-0.0529346	-0.193693	-0.103827	-0.0616313	0.36161	0.199915	0.426674
3      	0.0024000	-0.107048	-0.0490694	-0.196592	-0.105437	-0.0609871	0.388988	0.215698	0.477244
4      	0.0032000	-0.102216	-0.0468147	-0.195948	-0.110591	-0.0577661	0.408959	0.25274	0.519439
5      	0.0040000	-0.104149	-0.044882	-0.202068	-0.105115	-0.0535788	0.422165	0.269489	0.551972
6      	0.0048000	-0.105115	-0.0348969	-0.201745	-0.103827	-0.0452042	0.424742	0.283017	0.569365
7      	0.0056000	-0.103504	-0.0410168	-0.203034	-0.103504	-0.0458484	0.419588	0.293324	0.58547
8      	0.0064000	-0.10286	-0.0400505	-0.203356	-0.103182	-0.0381179	0.405416	0.305886	0.588047
9      	0.0072000	-0.098673	-0.0423052	-0.206255	-0.101572	-0.0316759	0.385767	0.297834	0.579672
10     	0.0080000	-0.0989951	-0.0403726	-0.205289	-0.0906204	-0.0249118	0.358389	0.293002	0.558092
11     	0.0088000	-0.103504	-0.0439157	-0.199169	-0.111235	-0.016215	0.327467	0.279474	0.528136
12     	0.0096000	-0.100928	-0.0468147	-0.195625	-0.105437	-0.00687409	0.289137	0.265302	0.486585
13     	0.0104000	-0.102538	-0.0503578	-0.19176	-0.106726	0.00311105	0.249841	0.244365	0.435049
14     	0.0112000	-0.104793	-0.0571219	-0.188861	-0.109947	0.0137404	0.207323	0.220207	0.37546
15     	0.0120000	-0.105437	-0.0674291	-0.185962	-0.109302	0.0227592	0.159008	0.187997	0.308141
16     	0.0128000	-0.101572	-0.0741933	-0.182097	-0.108658	0.0311339	0.110371	0.149989	0.23438
17     	0.0136000	-0.107692	-0.0857889	-0.17952	-0.11349	0.04434	0.0594788	0.113914	0.156109
18     	0.0144000	-0.106081	-0.0922309	-0.175655	-0.117677	0.0478831	0.00987518	0.0726849	0.0768723
19     	0.0152000	-0.107048	-0.0938415	-0.168247	-0.119287	0.0598009	-0.0397284	0.0288792	-0.0104172
20     	0.0160000	-0.108658	-0.103827	-0.175011	-0.11961	0.0672092	-0.0873994	-0.00590779	-0.0896541
21     	0.0168000	-0.108336	-0.109302	-0.15955	-0.121542	0.073007	-0.130561	-0.054223	-0.170502
22     	0.0176000	-0.10898	-0.1151	-0.154719	-0.122508	0.0778386	-0.174045	-0.0935194	-0.247484
23     	0.0184000	-0.108658	-0.118643	-0.148599	-0.124119	0.0804154	-0.210442	-0.132816	-0.320923
24     	0.0192000	-0.109624	-0.125085	-0.139902	-0.123475	0.0829922	-0.248128	-0.169535	-0.384377
25     	0.0200000	-0.110913	-0.127662	-0.139902	-0.121542	0.0839585	-0.270997	-0.204	-0.443644
26     	0.0208000	-0.112201	-0.133138	-0.138291	-0.118643	0.0797712	-0.283881	-0.235888	-0.493247
27     	0.0216000	-0.110913	-0.133138	-0.134104	-0.120576	0.073007	-0.302563	-0.256503	-0.533832
28     	0.0224000	-0.11349	-0.137325	-0.133138	-0.113812	0.0639882	-0.308039	-0.284848	-0.563788
29     	0.0232000	-0.110591	-0.138614	-0.131527	-0.125729	0.0527147	-0.304174	-0.303529	-0.584402
30     	0.0240000	-0.116066	-0.134748	-0.132494	-0.117033	0.0478831	-0.291934	-0.318346	-0.594065
31     	0.0248000	-0.117999	-0.134426	-0.128628	-0.109947	0.037898	-0.272608	-0.322856	-0.593099
32     	0.0256000	-0.117999	-0.132816	-0.132816	-0.108336	0.0388643	-0.253604	-0.327687	-0.580537
33     	0.0264000	-0.118965	-0.117355	-0.13507	-0.106081	0.0424074	-0.22397	-0.323822	-0.559278
34     	0.0272000	-0.120254	-0.126374	-0.137647	-0.105759	0.0214708	-0.187251	-0.316736	-0.52578
35     	0.0280000	-0.120254	-0.119932	-0.142157	-0.103182	0.0130962	-0.148921	-0.301919	-0.486161
36     	0.0288000	-0.120254	-0.117999	-0.144733	-0.106081	0.00762047	-0.110591	-0.282271	-0.431082
37     	0.0296000	-0.119287	-0.11349	-0.149565	-0.104471	-0.00172047	-0.0635639	-0.257147	-0.368916
38     	0.0304000	-0.117999	-0.10898	-0.153108	-0.104471	-0.009773	-0.0175034	-0.223648	-0.293544
39     	0.0312000	-0.117677	-0.0993172	-0.170502	-0.104149	-0.012994	0.0308118	-0.180487	-0.223648
40     	0.0320000	-0.114778	-0.0777364	-0.16567	-0.104471	-0.0226571	0.0800933	-0.150209	-0.142801
41     	0.0328000	-0.114134	-0.0886878	-0.173078	-0.108658	-0.0265223	0.125832	-0.110269	-0.0590545
42     	0.0336000	-0.116389	-0.0902983	-0.174367	-0.105115	-0.0419831	0.175113	-0.0661407	0.0240476
43     	0.0344000	-0.113812	-0.0770922	-0.179843	-0.111879	-0.0423052	0.217953	-0.0281328	0.108438
44     	0.0352000	-0.113812	-0.0722607	-0.182741	-0.103504	-0.0452042	0.259826	0.0240476	0.18993
45     	0.0360000	-0.114778	-0.0761259	-0.190794	-0.106081	-0.0400505	0.297834	0.0701081	0.268845
46     	0.0368000	-0.1151	-0.0693618	-0.191116	-0.106403	-0.0561556	0.328111	0.111981	0.336164
47     	0.0376000	-0.111879	-0.0593766	-0.202712	-0.105437	-0.0497136	0.351625	0.152566	0.400262
48     	0.0384000	-0.111879	-0.054223	-0.197236	-0.105115	-0.0493915	0.373205	0.191218	0.454697
49     	0.0392000	-0.10898	-0.0468147	-0.197558	-0.105437	-0.0481031	0.386089	0.224073	0.501402
50     	0.0400000	-0.109947	-0.0500357	-0.198202	-0.105115	-0.0468147	0.391887	0.254994	0.540698
51     	0.0408000	-0.102538	-0.0329643	-0.199813	-0.105759	-0.0394063	0.390921	0.280118	0.5655
52     	0.0416000	-0.105437	-0.0413389	-0.195303	-0.106081	-0.0348969	0.384157	0.301699	0.583215
53     	0.0424000	-0.110269	-0.0410168	-0.200135	-0.104149	-0.0300654	0.365797	0.316516	0.589657
54     	0.0432000	-0.0857889	-0.0406947	-0.195625	-0.0944857	-0.0229792	0.345505	0.325857	0.585148
55     	0.0440000	-0.0919088	-0.0413389	-0.192727	-0.109302	-0.0155708	0.319737	0.336164	0.569365
56     	0.0448000	-0.0915867	-0.044882	-0.192082	-0.110591	-0.00558569	0.288493	0.327145	0.544241
57     	0.0456000	-0.0906204	-0.0513241	-0.189506	-0.11349	0.00311105	0.25435	0.314583	0.501402
58     	0.0464000	-0.0899762	-0.0555114	-0.186607	-0.115422	0.0111636	0.21602	0.297512	0.460173
59     	0.0472000	-0.0922309	-0.0629197	-0.183708	-0.117033	0.0198603	0.175757	0.275931	0.403161
60     	0.0480000	-0.0928752	-0.0690397	-0.178554	-0.118643	0.0259802	0.132918	0.245009	0.341962
61     	0.0488000	-0.0973846	-0.0754817	-0.175977	-0.12122	0.0324223	0.0907226	0.211188	0.271099
62     	0.0496000	-0.101572	-0.0848226	-0.1734	-0.123797	0.0382201	0.0472389	0.173181	0.194761
63     	0.0504000	-0.101894	-0.0912646	-0.169857	-0.123475	0.0436958	0.00407735	0.131629	0.116491
64     	0.0512000	-0.104149	-0.0983509	-0.161161	-0.124763	0.0482052	-0.0365074	0.0849248	0.0349991
65     	0.0520000	-0.105115	-0.104793	-0.162127	-0.125407	0.0527147	-0.0787027	0.0391864	-0.0487473
66     	0.0528000	-0.115422	-0.110913	-0.156329	-0.116711	0.0552915	-0.117677	-0.00204257	-0.131205
67     	0.0536000	-0.114778	-0.1151	-0.152464	-0.121542	0.0607672	-0.152464	-0.0593766	-0.212053
68     	0.0544000	-0.109947	-0.120898	-0.143123	-0.122508	0.0585125	-0.188539	-0.10737	-0.287102
69     	0.0552000	-0.108658	-0.125407	-0.144733	-0.120898	0.0610893	-0.209476	-0.155363	-0.358931
70     	0.0560000	-0.113812	-0.12734	-0.143767	-0.117999	0.056902	-0.230735	-0.197558	-0.419808
71     	0.0568000	-0.111235	-0.12734	-0.138614	-0.117677	0.053681	-0.23621	-0.241364	-0.47682
72     	0.0576000	-0.112523	-0.132494	-0.125407	-0.116066	0.053681	-0.238465	-0.278406	-0.524169
73     	0.0584000	-0.113168	-0.131849	-0.136359	-0.113812	0.0517484	-0.25296	-0.311904	-0.562499
74     	0.0592000	-0.119287	-0.131205	-0.135393	-0.110913	0.0498157	-0.249094	-0.338316	-0.588589
75     	0.0600000	-0.119287	-0.131849	-0.136037	-0.10898	0.0453063	-0.236532	-0.358609	-0.606627
76     	0.0608000	-0.123475	-0.131205	-0.136359	-0.107692	0.0420853	-0.206899	-0.37568	-0.608238
77     	0.0616000	-0.126374	-0.129595	-0.139902	-0.106726	0.0362875	-0.195303	-0.383411	-0.599219
78     	0.0624000	-0.126696	-0.127984	-0.143123	-0.104149	0.0353212	-0.171146	-0.385021	-0.578282
79     	0.0632000	-0.127662	-0.124763	-0.146022	-0.103182	0.0224371	-0.136359	-0.377613	-0.545428
80     	0.0640000	-0.128951	-0.120576	-0.149565	-0.10286	0.0166393	-0.101894	-0.364407	-0.502588
81     	0.0648000	-0.128306	-0.116066	-0.150853	-0.10125	0.0111636	-0.067107	-0.343792	-0.450408
82     	0.0656000	-0.127018	-0.110913	-0.158262	-0.10125	0.00407735	-0.0249118	-0.314803	-0.390819
83     	0.0664000	-0.122831	-0.109624	-0.160516	-0.0964183	-0.0081625	0.0166393	-0.287102	-0.324144
84     	0.0672000	-0.123475	-0.101894	-0.163093	-0.100606	-0.0100951	0.0581904	-0.245551	-0.247162
85     	0.0680000	-0.119932	-0.0912646	-0.165992	-0.0996393	-0.0113835	0.10264	-0.204	-0.177588
86     	0.0688000	-0.118321	-0.0877215	-0.170502	-0.0957741	-0.0175034	0.140648	-0.158262	-0.0983509
87     	0.0696000	-0.112845	-0.0822458	-0.174689	-0.098673	-0.0207244	0.17157	-0.109624	-0.0171813
88     	0.0704000	-0.113168	-0.0754817	-0.175655	-0.0996393	-0.0239455	0.215698	-0.057444	0.0643103
89     	0.0712000	-0.106081	-0.0693618	-0.181453	-0.102216	-0.0258781	0.246298	-0.00461938	0.142581
90     	0.0720000	-0.106403	-0.0609871	-0.182741	-0.0999614	-0.0300654	0.277863	0.0498157	0.219241
91     	0.0728000	-0.104149	-0.0580882	-0.184352	-0.0983509	-0.0271665	0.300411	0.103607	0.291392
92     	0.0736000	-0.102216	-0.0532567	-0.187251	-0.0999614	-0.0284549	0.317482	0.156431	0.3571
93     	0.0744000	-0.100283	-0.0493915	-0.188861	-0.100283	-0.0239455	0.329078	0.206679	0.416045
94     	0.0752000	-0.0996393	-0.0468147	-0.192082	-0.0941636	-0.0233013	0.334231	0.25435	0.469836
95     	0.0760000	-0.10125	-0.0455263	-0.193371	-0.104149	-0.0210465	0.330688	0.28656	0.514286
96     	0.0768000	-0.0973846	-0.0468147	-0.193049	-0.103182	-0.0187918	0.326501	0.32328	0.550039
97     	0.0776000	-0.0983509	-0.0487473	-0.194337	-0.105437	-0.0133161	0.316838	0.347115	0.574197
98     	0.0784000	-0.0935194	-0.0474589	-0.193693	-0.111557	-0.0104172	0.301699	0.361288	0.587081
99     	0.0792000	-0.0938415	-0.0461705	-0.192727	-0.111235	-0.00687409	0.287526	0.373528	0.58547
100    	0.0800000	-0.107048	-0.051002	-0.192727	-0.116066	-0.00397518	0.26208	0.374816	0.575485
101    	0.0808000	-0.0960962	-0.0522904	-0.190472	-0.119287	0.00182265	0.239533	0.369662	0.552938
102    	0.0816000	-0.0899762	-0.0535788	-0.191438	-0.118321	0.000212139	0.213765	0.36322	0.519761
103    	0.0824000	-0.0915867	-0.0622755	-0.186607	-0.124441	0.00762047	0.186065	0.341317	0.4766
104    	0.0832000	-0.0948078	-0.0651744	-0.18403	-0.125729	0.0143846	0.151278	0.319092	0.422809
105    	0.0840000	-0.0835342	-0.073227	-0.182419	-0.122831	0.0169614	0.118423	0.287204	0.36161
106    	0.0848000	-0.10125	-0.0803132	-0.176944	-0.142801	0.0198603	0.0842806	0.247586	0.295257
107    	0.0856000	-0.0957741	-0.0886878	-0.174045	-0.127984	0.0250139	0.0482052	0.21602	0.22214
108    	0.0864000	-0.0983509	-0.0935194	-0.172434	-0.129595	0.0292013	0.012452	0.170282	0.141937
109    	0.0872000	-0.101572	-0.0999614	-0.168247	-0.126696	0.0353212	-0.0233013	0.117457	0.0591567
110    	0.0880000	-0.105115	-0.107048	-0.166314	-0.123797	0.0401527	-0.0567998	0.0675313	-0.0216908
111    	0.0888000	-0.109624	-0.111879	-0.161483	-0.123153	0.0430516	-0.0867552	0.00343315	-0.104793
112    	0.0896000	-0.112845	-0.116711	-0.157295	-0.131527	0.0459505	-0.113168	-0.0535788	-0.184352
113    	0.0904000	-0.116066	-0.121542	-0.154719	-0.123153	0.0469168	-0.132172	-0.112201	-0.26069
114    	0.0912000	-0.124441	-0.123153	-0.152464	-0.120576	0.0478831	-0.149887	-0.168247	-0.332197
115    	0.0920000	-0.118965	-0.127018	-0.149565	-0.117677	0.0465947	-0.165992	-0.21785	-0.396939
116    	0.0928000	-0.117033	-0.127984	-0.147954	-0.116711	0.0465947	-0.178232	-0.265844	-0.453951
117    	0.0936000	-0.126696	-0.129273	-0.144411	-0.113812	0.0449842	-0.185318	-0.305462	-0.502266
118    	0.0944000	-0.121542	-0.129273	-0.143123	-0.111557	0.04434	-0.191438	-0.340571	-0.538986
119    	0.0952000	-0.121864	-0.128951	-0.141512	-0.122508	0.0436958	-0.184352	-0.368916	-0.566364
120    	0.0960000	-0.120576	-0.128951	-0.15182	-0.108336	0.0407969	-0.174367	-0.393718	-0.582469
121    	0.0968000	-0.13346	-0.12734	-0.143445	-0.105759	0.0382201	-0.163737	-0.409501	-0.587623
122    	0.0976000	-0.123797	-0.124763	-0.144089	-0.10125	0.0327444	-0.143123	-0.417876	-0.582792
123    	0.0984000	-0.120576	-0.119932	-0.144089	-0.103182	0.031456	-0.117677	-0.417876	-0.567009
124    	0.0992000	-0.121542	-0.117999	-0.143445	-0.101572	0.0279129	-0.105437	-0.410789	-0.540274
125    	0.1000000	-0.12122	-0.1151	-0.136359	-0.0996393	0.0246918	-0.0809574	-0.396295	-0.504199
126    	0.1008000	-0.119287	-0.110913	-0.147954	-0.0973846	0.0217929	-0.0600208	-0.373103	-0.457816
127    	0.1016000	-0.119287	-0.10737	-0.143445	-0.0957741	0.0166393	-0.0233013	-0.343792	-0.40177
128    	0.1024000	-0.118643	-0.10286	-0.15182	-0.0964183	0.00311105	0.00568786	-0.309649	-0.341215
129    	0.1032000	-0.117677	-0.0970625	-0.155363	-0.0944857	0.00858677	0.0369317	-0.267454	-0.269065
130    	0.1040000	-0.117033	-0.0902983	-0.157618	-0.095452	0.00407735	0.0717186	-0.223648	-0.194659
131    	0.1048000	-0.113168	-0.0864331	-0.166636	-0.0957741	0.00117844	0.0978088	-0.172756	-0.115422
132    	0.1056000	-0.10898	-0.0803132	-0.16567	-0.0989951	-0.00204257	0.12712	-0.115422	-0.0358632
133    	0.1064000	-0.108014	-0.0738712	-0.169213	-0.0957741	-0.0088067	0.152888	-0.0593766	0.047561
134    	0.1072000	-0.105759	-0.0735491	-0.167281	-0.0980288	-0.0136382	0.17769	-0.000109962	0.123899
135    	0.1080000	-0.103182	-0.0674291	-0.175011	-0.0983509	-0.00751829	0.199271	0.0575462	0.198627
136    	0.1088000	-0.100928	-0.0600208	-0.17952	-0.10125	-0.0133161	0.218275	0.117457	0.271099
137    	0.1096000	-0.0989951	-0.057444	-0.183386	-0.103504	-0.016215	0.233736	0.16996	0.340351
138    	0.1104000	-0.0957741	-0.0551893	-0.188217	-0.0973846	-0.0149266	0.241788	0.22214	0.403161
139    	0.1112000	-0.0964183	-0.0539009	-0.186929	-0.110591	-0.0146045	0.254994	0.267878	0.457274
140    	0.1120000	-0.0964183	-0.0551893	-0.191438	-0.11349	-0.0123498	0.263369	0.306853	0.504301
141    	0.1128000	-0.0970625	-0.0529346	-0.191116	-0.117677	-0.00558569	0.264657	0.342606	0.537155
142    	0.1136000	-0.0960962	-0.0558335	-0.196914	-0.118965	-0.0126719	0.26208	0.371595	0.566788
143    	0.1144000	-0.0960962	-0.0564777	-0.200457	-0.120898	-0.0110614	0.258537	0.393498	0.580639
144    	0.1152000	-0.0964183	-0.0590545	-0.197236	-0.123475	-0.009773	0.251451	0.404449	0.582893
145    	0.1160000	-0.0983509	-0.0603429	-0.195948	-0.123797	-0.00687409	0.237279	0.408959	0.573874
146    	0.1168000	-0.0977067	-0.0654965	-0.195948	-0.125729	-0.00687409	0.224073	0.40606	0.551972
147    	0.1176000	-0.0993172	-0.0658186	-0.193371	-0.127662	-0.0094509	0.205713	0.392854	0.520728
148    	0.1184000	-0.100283	-0.0690397	-0.190472	-0.127018	-0.00655199	0.182521	0.372561	0.478855
149    	0.1192000	-0.098673	-0.0729049	-0.188861	-0.124763	-0.00429728	0.154821	0.343894	0.434083
150    	0.1200000	-0.102538	-0.0799911	-0.187573	-0.126052	-0.00268677	0.129697	0.310396	0.37385
151    	0.1208000	-0.10286	-0.0799911	-0.183708	-0.128306	-0.000432064	0.105217	0.266268	0.311362
152    	0.1216000	-0.10286	-0.0854668	-0.175977	-0.121864	0.00343315	0.069786	0.220207	0.243721
153    	0.1224000	-0.105115	-0.0890099	-0.176622	-0.118321	0.00762047	0.0456284	0.166094	0.170926
154    	0.1232000	-0.102538	-0.0935194	-0.169857	-0.112201	0.0111636	0.0185719	0.111015	0.0945878
155    	0.1240000	-0.106081	-0.0964183	-0.166958	-0.119932	0.0118078	-0.00719619	0.0488494	0.0137404
156    	0.1248000	-0.108658	-0.100606	-0.162449	-0.124763	0.0176056	-0.0332864	-0.0187918	-0.067107
157    	0.1256000	-0.111557	-0.101572	-0.158584	-0.113812	0.022115	-0.0555114	-0.0680733	-0.148277
158    	0.1264000	-0.113168	-0.107048	-0.156329	-0.111235	0.0362875	-0.0774143	-0.126374	-0.22848
159    	0.1272000	-0.114778	-0.110913	-0.152142	-0.10898	0.028235	-0.0977067	-0.179843	-0.301597
160    	0.1280000	-0.115422	-0.112523	-0.150853	-0.10898	0.0266244	-0.114456	-0.233956	-0.36795
161    	0.1288000	-0.117677	-0.115422	-0.145378	-0.10737	0.031456	-0.126374	-0.284525	-0.426572
162    	0.1296000	-0.117033	-0.117999	-0.146666	-0.104149	0.0330665	-0.131527	-0.328653	-0.476176
163    	0.1304000	-0.117677	-0.117999	-0.151176	-0.102216	0.0353212	-0.141835	-0.368272	-0.515472
164    	0.1312000	-0.11961	-0.117999	-0.142157	-0.100928	0.0362875	-0.145378	-0.398549	-0.545428
165    	0.1320000	-0.118965	-0.118321	-0.139902	-0.0996393	0.0330665	-0.139902	-0.422385	-0.56572
166    	0.1328000	-0.119287	-0.12122	-0.152464	-0.0977067	0.0372538	-0.14731	-0.436879	-0.574417
167    	0.1336000	-0.122186	-0.118643	-0.143445	-0.0964183	0.037898	-0.129273	-0.441389	-0.572806
168    	0.1344000	-0.122831	-0.119287	-0.143445	-0.0960962	0.0395085	-0.117355	-0.440745	-0.5596
169    	0.1352000	-0.122508	-0.115744	-0.146666	-0.0970625	0.041119	-0.10125	-0.429793	-0.53512
170    	0.1360000	-0.122508	-0.115744	-0.145056	-0.0964183	0.0449842	-0.0896541	-0.411433	-0.500333
171    	0.1368000	-0.124441	-0.108014	-0.148277	-0.0980288	0.0395085	-0.0722607	-0.384055	-0.458782
172    	0.1376000	-0.121864	-0.111557	-0.149243	-0.0999614	0.0427295	-0.0545451	-0.351845	-0.409179
173    	0.1384000	-0.12122	-0.108658	-0.153752	-0.103504	0.0414411	-0.0348969	-0.311582	-0.352489
174    	0.1392000	-0.118643	-0.10125	-0.157295	-0.103182	0.0337107	-0.0120277	-0.2623	-0.287747
175    	0.1400000	-0.115744	-0.100606	-0.160516	-0.105759	0.0388643	0.00890887	-0.210764	-0.21624
176    	0.1408000	-0.112523	-0.0902983	-0.161161	-0.10737	0.0349991	0.0366096	-0.157295	-0.137647
177    	0.1416000	-0.108336	-0.0906204	-0.166314	-0.107048	0.0266244	0.0636661	-0.10125	-0.0593766
178    	0.1424000	-0.106081	-0.0838563	-0.169857	-0.106726	0.0250139	0.0907226	-0.0426273	0.0211487
179    	0.1432000	-0.103827	-0.0880436	-0.171146	-0.111557	0.0195382	0.112625	0.0182498	0.10264
180    	0.1440000	-0.101894	-0.0758038	-0.174689	-0.104149	0.0153509	0.132274	0.0762281	0.179945
181    	0.1448000	-0.100283	-0.0735491	-0.177588	-0.114778	0.0130962	0.151278	0.137427	0.252417
182    	0.1456000	-0.0970625	-0.0703281	-0.180165	-0.1151	0.00697627	0.168993	0.191218	0.320059
183    	0.1464000	-0.0957741	-0.0687175	-0.184352	-0.116389	0.00407735	0.182199	0.251129	0.38158
184    	0.1472000	-0.0957741	-0.0664628	-0.186929	-0.118643	-0.000432064	0.195406	0.291714	0.436015
185    	0.1480000	-0.0919088	-0.0635639	-0.188217	-0.120576	-0.00558569	0.205069	0.325857	0.481754
186    	0.1488000	-0.0970625	-0.0645302	-0.190472	-0.121542	-0.009773	0.213121	0.366119	0.517829
187    	0.1496000	-0.095452	-0.0658186	-0.19176	-0.123797	-0.0184697	0.218597	0.393176	0.545207
188    	0.1504000	-0.0960962	-0.063886	-0.192082	-0.123475	-0.0191139	0.220207	0.408959	0.562279
189    	0.1512000	-0.0970625	-0.0645302	-0.194015	-0.128951	-0.0207244	0.223428	0.421521	0.569687
190    	0.1520000	-0.0970625	-0.0651744	-0.196914	-0.126052	-0.0229792	0.221818	0.421521	0.5655
191    	0.1528000	-0.0964183	-0.0680733	-0.19176	-0.125085	-0.0197581	0.214732	0.412502	0.552938
192    	0.1536000	-0.0967404	-0.0683954	-0.185318	-0.126374	-0.0226571	0.205713	0.395753	0.52878
193    	0.1544000	-0.0960962	-0.0687175	-0.189828	-0.125729	-0.0242676	0.197016	0.368374	0.497214
194    	0.1552000	-0.0960962	-0.0696839	-0.176944	-0.126374	-0.0204023	0.179945	0.335197	0.455341
195    	0.1560000	-0.0967404	-0.0709723	-0.190472	-0.123153	-0.0171813	0.162551	0.296223	0.404771
196    	0.1568000	-0.0983509	-0.0677512	-0.180487	-0.120898	-0.0168592	0.145158	0.251773	0.344216
