Scan Rate:  1250
Scans Per Frame:  10
Total Scans:  14430
ZP: 0 	 TP: 0
Number of Channels:  8
Scaled:  No
Scale Factor:     	1	1	1	1	1	1	1	1
Offset:           	0	0	0	0	0	0	0	0
Color:           	255,0,0	0,255,0	0,0,255	255,255,0	255,0,255	0,255,255	255,128,0	128,255,0
Label:            	Channel0	Channel1	Channel2	Channel3	Channel4	Channel5	Channel6	Channel7
Units:            	Volts	Volts	Volts	Volts	Volts	Volts	Volts	Volts
Index      Time   	Ch.00	Ch.01	Ch.02	Ch.03	Ch.04	Ch.05	Ch.06	Ch.07
0      	0.0000000	-0.00236467	0.161263	0.103607	0.184776	-0.153752	0.0469168	-0.298054	-0.332519
1      	0.0008000	-0.00558569	0.167705	0.0981309	0.191218	-0.165992	0.0726849	-0.272286	-0.293222
2      	0.0016000	-0.00558569	0.173825	0.0974867	0.18993	-0.175333	0.102962	-0.242974	-0.247806
3      	0.0024000	-0.00590779	0.178334	0.0926552	0.191862	-0.182097	0.128408	-0.206255	-0.197236
4      	0.0032000	-0.00461938	0.182844	0.0904005	0.193795	-0.186285	0.148057	-0.167281	-0.144411
5      	0.0040000	0.00504366	0.187031	0.0858911	0.197016	-0.186285	0.16996	-0.123475	-0.0867552
6      	0.0048000	-0.00236467	0.193795	0.0836364	0.195406	-0.187251	0.183166	-0.0725828	-0.0258781
7      	0.0056000	-0.00107627	0.204746	0.082348	0.198949	-0.179198	0.18993	-0.0290991	0.0321002
8      	0.0064000	0.000856342	0.203136	0.0800933	0.197016	-0.167281	0.187997	0.0214708	0.0923331
9      	0.0072000	0.000212139	0.206679	0.0784828	0.198949	-0.151176	0.182844	0.0694639	0.146768
10     	0.0080000	0.00568786	0.211511	0.0781607	0.197338	-0.133138	0.170604	0.114236	0.201525
11     	0.0088000	0.0108415	0.212477	0.0771944	0.186387	-0.109624	0.157075	0.159652	0.253384
12     	0.0096000	0.0127741	0.216986	0.0788049	0.193151	-0.0841784	0.137749	0.198627	0.297834
13     	0.0104000	0.0159951	0.219241	0.0768723	0.190574	-0.0567998	0.119068	0.235024	0.338096
14     	0.0112000	0.0227592	0.22214	0.0765502	0.174791	-0.028777	0.0939436	0.276897	0.371595
15     	0.0120000	0.0272687	0.225361	0.0771944	0.183488	0.00375525	0.0688197	0.296545	0.397363
16     	0.0128000	0.031456	0.223106	0.0784828	0.181877	0.0295234	0.041119	0.316193	0.419266
17     	0.0136000	0.0362875	0.218275	0.0733291	0.175757	0.0562578	0.0111636	0.329722	0.423453
18     	0.0144000	0.0372538	0.219885	0.0817038	0.172214	0.0813817	-0.0197581	0.332299	0.425386
19     	0.0152000	0.0404748	0.212477	0.0810596	0.167705	0.103929	-0.0497136	0.336808	0.418944
20     	0.0160000	0.0465947	0.212477	0.0826701	0.163195	0.127442	-0.0799911	0.330044	0.409603
21     	0.0168000	0.0459505	0.20217	0.0836364	0.157398	0.144191	-0.10737	0.313939	0.38158
22     	0.0176000	0.0449842	0.201203	0.0862132	0.155787	0.160296	-0.132494	0.292358	0.34937
23     	0.0184000	0.0511041	0.197016	0.0884679	0.149023	0.170926	-0.153108	0.261436	0.308463
24     	0.0192000	0.0453063	0.189608	0.0907226	0.146768	0.181877	-0.173078	0.225361	0.259182
25     	0.0200000	0.0453063	0.184776	0.0904005	0.146446	0.181555	-0.188217	0.181555	0.204424
26     	0.0208000	0.04434	0.178012	0.110371	0.143869	0.17769	-0.209476	0.134206	0.144514
27     	0.0216000	0.0401527	0.170926	0.0987751	0.142581	0.172858	-0.207543	0.0833143	0.0833143
28     	0.0224000	0.0391864	0.164162	0.10264	0.140326	0.163195	-0.210764	0.0324223	0.0195382
29     	0.0232000	0.0375759	0.158042	0.100064	0.139682	0.150311	-0.210442	-0.0242676	-0.0432715
30     	0.0240000	0.0327444	0.1516	0.110693	0.139038	0.133562	-0.205289	-0.0735491	-0.104793
31     	0.0248000	0.0327444	0.145802	0.104251	0.140326	0.117135	-0.197558	-0.125729	-0.164382
32     	0.0256000	0.0298455	0.147735	0.114236	0.140004	0.0971646	-0.187251	-0.174045	-0.219783
33     	0.0264000	0.0279129	0.142581	0.117779	0.140004	0.0662429	-0.173078	-0.218495	-0.271964
34     	0.0272000	0.0266244	0.130985	0.122933	0.14548	0.0527147	-0.158584	-0.261656	-0.318668
35     	0.0280000	0.0234034	0.128731	0.116491	0.142259	0.0288792	-0.138614	-0.299342	-0.360219
36     	0.0288000	0.022115	0.124543	0.12551	0.143225	0.00504366	-0.115422	-0.33123	-0.397261
37     	0.0296000	0.0217929	0.123577	0.127442	0.145802	-0.0210465	-0.0925531	-0.363118	-0.427539
38     	0.0304000	0.0211487	0.122289	0.120678	0.145802	-0.044882	-0.0716165	-0.382766	-0.451374
39     	0.0312000	0.0237255	0.123577	0.129697	0.15321	-0.0683954	-0.0464926	-0.397905	-0.457816
40     	0.0320000	0.0217929	0.123577	0.130663	0.151278	-0.0880436	-0.0236234	-0.40628	-0.468768
41     	0.0328000	0.0349991	0.126476	0.131307	0.154499	-0.105437	0.00053424	-0.404025	-0.463936
42     	0.0336000	0.0250139	0.130985	0.132274	0.158042	-0.120254	0.0211487	-0.396617	-0.447509
43     	0.0344000	0.025336	0.131952	0.131952	0.161263	-0.136681	0.0427295	-0.381478	-0.422063
44     	0.0352000	0.0246918	0.137749	0.131307	0.161907	-0.147954	0.0614114	-0.359575	-0.390175
45     	0.0360000	0.025336	0.141937	0.134528	0.168671	-0.154074	0.0781607	-0.33123	-0.351845
46     	0.0368000	0.028235	0.144836	0.130019	0.16996	-0.147954	0.0862132	-0.292256	-0.30675
47     	0.0376000	0.0266244	0.156109	0.127764	0.174147	-0.149565	0.0923331	-0.250383	-0.256181
48     	0.0384000	0.031456	0.158364	0.122611	0.163518	-0.150531	0.0987751	-0.200135	-0.200135
49     	0.0392000	0.0301676	0.165772	0.124543	0.172214	-0.138936	0.0974867	-0.150853	-0.13958
50     	0.0400000	0.0317781	0.173181	0.11939	0.175113	-0.128628	0.095232	-0.0964183	-0.0751596
51     	0.0408000	0.0349991	0.175113	0.116813	0.174791	-0.110591	0.0897563	-0.041661	-0.0142824
52     	0.0416000	0.0356433	0.184454	0.111015	0.166416	-0.0948078	0.0849248	0.00439946	0.0530368
53     	0.0424000	0.0385422	0.188319	0.106183	0.174147	-0.0729049	0.0746175	0.0581904	0.118745
54     	0.0432000	0.0359654	0.194439	0.101352	0.165772	-0.0516462	0.0623777	0.11939	0.179945
55     	0.0440000	0.0375759	0.191862	0.0961983	0.168671	-0.028777	0.0501378	0.166416	0.237279
56     	0.0448000	0.0382201	0.203458	0.0839585	0.169637	-0.00429728	0.0337107	0.213121	0.288493
57     	0.0456000	0.0375759	0.206679	0.0868574	0.167061	0.0163172	0.0185719	0.254028	0.334875
58     	0.0464000	0.0382201	0.210222	0.0839585	0.164806	0.0382201	0.00182265	0.292036	0.370307
59     	0.0472000	0.0375759	0.213765	0.079127	0.163195	0.0575462	-0.016215	0.32328	0.407992
60     	0.0480000	0.0349991	0.215698	0.0736512	0.161907	0.082348	-0.0410168	0.347437	0.433438
61     	0.0488000	0.0356433	0.214087	0.0846027	0.162229	0.0936215	-0.0516462	0.365475	0.449221
62     	0.0496000	0.0311339	0.215698	0.0678534	0.158686	0.114558	-0.0687175	0.372883	0.457918
63     	0.0504000	0.0304897	0.213121	0.066565	0.160619	0.123577	-0.0841784	0.36934	0.453087
64     	0.0512000	0.0279129	0.211511	0.063344	0.160296	0.136783	-0.0996393	0.358067	0.44439
65     	0.0520000	0.0250139	0.211833	0.0636661	0.160619	0.146446	-0.110591	0.339385	0.425064
66     	0.0528000	0.022115	0.210544	0.0607672	0.162873	0.148701	-0.120576	0.314905	0.398651
67     	0.0536000	0.0208266	0.208612	0.0614114	0.162229	0.149667	-0.127018	0.283339	0.363864
68     	0.0544000	0.0159951	0.206035	0.063344	0.163195	0.142903	-0.132494	0.245009	0.320703
69     	0.0552000	0.0163172	0.203458	0.0614114	0.16384	0.133884	-0.137325	0.20378	0.270133
70     	0.0560000	0.0121299	0.200237	0.0675313	0.167383	0.123255	-0.138614	0.151278	0.214087
71     	0.0568000	0.0205045	0.197016	0.0713965	0.169637	0.109082	-0.134748	0.105539	0.150633
72     	0.0576000	0.00858677	0.194761	0.0733291	0.170604	0.0961983	-0.132172	0.0530368	0.0852469
73     	0.0584000	0.00858677	0.189286	0.0797712	0.172214	0.0784828	-0.113812	0.00117844	0.018894
74     	0.0592000	0.00762047	0.18381	0.0852469	0.176402	0.0620556	-0.113812	-0.0532567	-0.0458484
75     	0.0600000	0.00987518	0.179945	0.08879	0.176079	0.0433737	-0.102538	-0.102538	-0.111557
76     	0.0608000	0.00890887	0.175113	0.0955541	0.173503	0.0214708	-0.0915867	-0.150853	-0.174689
77     	0.0616000	0.00955308	0.179623	0.10103	0.177368	0.00246685	-0.0799911	-0.205611	-0.2346
78     	0.0624000	0.0108415	0.167383	0.10264	0.179945	-0.019436	-0.0709723	-0.245551	-0.290001
79     	0.0632000	0.0118078	0.16545	0.110693	0.180589	-0.0490694	-0.060665	-0.293866	-0.341215
80     	0.0640000	0.015673	0.159652	0.119068	0.176079	-0.0622755	-0.0506799	-0.329942	-0.380512
81     	0.0648000	0.0163172	0.161585	0.121966	0.183488	-0.0790248	-0.0406947	-0.360219	-0.423029
82     	0.0656000	0.0182498	0.157075	0.12712	0.181555	-0.0915867	-0.0316759	-0.378257	-0.450408
83     	0.0664000	0.0182498	0.153854	0.130985	0.183166	-0.104471	-0.0220129	-0.397583	-0.468445
84     	0.0672000	0.0230813	0.150633	0.135495	0.168027	-0.117999	-0.0155708	-0.413366	-0.478108
85     	0.0680000	0.0224371	0.149667	0.138071	0.181877	-0.123153	-0.0100951	-0.404347	-0.479075
86     	0.0688000	0.0275908	0.149023	0.138071	0.180589	-0.124441	-0.00526358	-0.395328	-0.472311
87     	0.0696000	0.0243697	0.145802	0.140004	0.177368	-0.125729	-0.00107627	-0.377935	-0.453629
88     	0.0704000	0.0324223	0.142903	0.140326	0.172858	-0.122186	0.000856342	-0.350234	-0.428505
89     	0.0712000	0.0321002	0.143869	0.141615	0.172536	-0.117033	0.00633206	-0.321889	-0.38792
90     	0.0720000	0.0308118	0.143869	0.137749	0.165772	-0.10286	0.00117844	-0.284203	-0.34347
91     	0.0728000	0.0349991	0.142581	0.123255	0.162551	-0.0980288	-0.00172047	-0.244585	-0.291934
92     	0.0736000	0.0385422	0.144514	0.134528	0.156431	-0.0809574	-0.00590779	-0.19627	-0.238787
93     	0.0744000	0.041119	0.142259	0.131307	0.151278	-0.0661407	-0.0091288	-0.146666	-0.174367
94     	0.0752000	0.0462726	0.157075	0.127442	0.146124	-0.0484252	-0.0139603	-0.0967404	-0.108336
95     	0.0760000	0.0462726	0.148379	0.122611	0.140648	-0.0239455	-0.019436	-0.0484252	-0.0432715
96     	0.0768000	0.0478831	0.152244	0.117779	0.136139	-0.00687409	-0.0358632	0.00407735	0.028235
97     	0.0776000	0.0504599	0.154821	0.11327	0.126154	0.0166393	-0.0297433	0.0559357	0.0971646
98     	0.0784000	0.0498157	0.146446	0.105217	0.127442	0.0385422	-0.0329643	0.102318	0.162873
99     	0.0792000	0.0488494	0.159974	0.10264	0.126798	0.056902	-0.0410168	0.156109	0.224073
100    	0.0800000	0.0485273	0.163518	0.0945878	0.124865	0.073007	-0.0410168	0.194439	0.281084
101    	0.0808000	0.0465947	0.165772	0.095232	0.116813	0.0913668	-0.0490694	0.232125	0.330688
102    	0.0816000	0.0514262	0.168027	0.0852469	0.123577	0.106506	-0.0506799	0.265302	0.37385
103    	0.0824000	0.0456284	0.171892	0.0820259	0.125187	0.116169	-0.0548672	0.296223	0.408314
104    	0.0832000	0.0446621	0.177046	0.0826701	0.124543	0.126476	-0.0484252	0.315871	0.436659
105    	0.0840000	0.0465947	0.180911	0.0778386	0.125832	0.134206	-0.051002	0.333587	0.45824
106    	0.0848000	0.0453063	0.188319	0.0759059	0.129053	0.14097	-0.0493915	0.340029	0.468547
107    	0.0856000	0.0427295	0.173825	0.0746175	0.132596	0.158686	-0.0484252	0.342284	0.467581
108    	0.0864000	0.041119	0.195083	0.0742954	0.136139	0.142259	-0.0452042	0.335842	0.465004
109    	0.0872000	0.0388643	0.198627	0.0736512	0.141293	0.136461	-0.0403726	0.323924	0.448899
110    	0.0880000	0.0407969	0.200237	0.0736512	0.14709	0.128731	-0.0361853	0.303632	0.424097
111    	0.0888000	0.037898	0.204102	0.0739733	0.153854	0.115524	-0.0300654	0.27883	0.388666
112    	0.0896000	0.0349991	0.206035	0.0765502	0.158042	0.103285	-0.0242676	0.243399	0.347437
113    	0.0904000	0.0362875	0.206679	0.0781607	0.166094	0.0891121	-0.0168592	0.202814	0.296867
114    	0.0912000	0.0330665	0.208612	0.0826701	0.179945	0.073007	-0.0136382	0.163195	0.244043
115    	0.0920000	0.0250139	0.206679	0.0846027	0.175757	0.0546473	-0.00397518	0.116813	0.184776
116    	0.0928000	0.0211487	0.207645	0.0842806	0.182199	0.0395085	-0.00139837	0.0694639	0.119068
117    	0.0936000	0.0176056	0.20217	0.0881458	0.188641	0.0185719	-0.000109962	0.0179277	0.0572241
118    	0.0944000	0.00826467	0.20217	0.0916889	0.190574	-0.00107627	-0.00139837	-0.0310317	-0.009773
119    	0.0952000	0.0111636	0.196372	0.0936215	0.195728	-0.0216908	-0.00494148	-0.0812795	-0.0758038
120    	0.0960000	0.0118078	0.19766	0.0968425	0.198949	-0.0307096	-0.00139837	-0.130561	-0.139902
121    	0.0968000	0.00568786	0.194439	0.101352	0.203136	-0.0551893	0.000212139	-0.175977	-0.205611
122    	0.0976000	0.00343315	0.19154	0.10264	0.204424	-0.0738712	-0.00397518	-0.219783	-0.265844
123    	0.0984000	0.00150054	0.186709	0.106506	0.207001	-0.0906204	-0.00397518	-0.256181	-0.318346
124    	0.0992000	-0.000432064	0.181233	0.109082	0.205391	-0.0977067	-0.012994	-0.286136	-0.365373
125    	0.1000000	-0.00172047	0.1793	0.110693	0.20829	-0.105437	-0.0210465	-0.309972	-0.406602
126    	0.1008000	-0.00172047	0.178656	0.11488	0.206357	-0.111879	-0.0307096	-0.327687	-0.436557
127    	0.1016000	-0.00204257	0.174147	0.117135	0.204424	-0.110913	-0.0503578	-0.339283	-0.460715
128    	0.1024000	-0.000754165	0.167061	0.113914	0.200881	-0.109947	-0.057444	-0.347335	-0.478431
129    	0.1032000	-0.00204257	0.166094	0.115524	0.19766	-0.107048	-0.0703281	-0.348946	-0.481974
130    	0.1040000	-0.000754165	0.154499	0.114558	0.194117	-0.103827	-0.0925531	-0.338639	-0.48133
131    	0.1048000	0.00053424	0.161263	0.110371	0.189286	-0.0970625	-0.0899762	-0.32511	-0.469734
132    	0.1056000	0.00375525	0.158042	0.115202	0.182521	-0.0883657	-0.10737	-0.306106	-0.449119
133    	0.1064000	0.00182265	0.154177	0.11327	0.1793	-0.0803132	-0.122831	-0.27905	-0.41852
134    	0.1072000	0.00633206	0.152244	0.119712	0.172536	-0.0651744	-0.125729	-0.249094	-0.379545
135    	0.1080000	0.0105194	0.149023	0.111015	0.169315	-0.0490694	-0.14119	-0.212375	-0.334451
136    	0.1088000	0.0137404	0.148379	0.118423	0.162551	-0.0294212	-0.143123	-0.173078	-0.283559
137    	0.1096000	0.018894	0.149023	0.10876	0.145158	-0.00751829	-0.152142	-0.116389	-0.227836
138    	0.1104000	0.022115	0.159008	0.107472	0.1516	0.0143846	-0.15794	-0.0816016	-0.167603
139    	0.1112000	0.0269465	0.14709	0.106828	0.139682	0.0359654	-0.160194	-0.0332864	-0.105759
140    	0.1120000	0.0317781	0.150633	0.100064	0.142581	0.0540031	-0.161483	0.0150288	-0.041661
141    	0.1128000	0.0340328	0.15321	0.104251	0.136783	0.073007	-0.160194	0.0591567	0.0195382
142    	0.1136000	0.0385422	0.155143	0.0997414	0.132274	0.08879	-0.155685	0.105539	0.0797712
143    	0.1144000	0.0420853	0.159974	0.101674	0.131952	0.101674	-0.148921	0.148379	0.139682
144    	0.1152000	0.0462726	0.163518	0.100708	0.127764	0.112948	-0.14119	0.184776	0.19766
145    	0.1160000	0.047561	0.167705	0.0990972	0.124221	0.121	-0.129595	0.220207	0.25274
146    	0.1168000	0.0523926	0.16996	0.0961983	0.128408	0.12712	-0.116389	0.243077	0.302343
147    	0.1176000	0.056902	0.174469	0.0974867	0.126154	0.128086	-0.0977067	0.264979	0.346471
148    	0.1184000	0.0591567	0.178334	0.0987751	0.128086	0.126154	-0.0806353	0.279796	0.384479
149    	0.1192000	0.0598009	0.181555	0.0968425	0.128086	0.121	-0.0622755	0.289137	0.417655
150    	0.1200000	0.0655987	0.187031	0.0971646	0.124865	0.112625	-0.0400505	0.287849	0.433116
151    	0.1208000	0.0646324	0.190896	0.0968425	0.133884	0.104251	-0.0191139	0.28495	0.445034
152    	0.1216000	0.0636661	0.192185	0.0994193	0.135173	0.0945878	0.00375525	0.27883	0.447289
153    	0.1224000	0.0626998	0.193151	0.0981309	0.139682	0.0836364	0.0266244	0.257893	0.440525
154    	0.1232000	0.0614114	0.195083	0.0974867	0.141293	0.0710744	0.0462726	0.244043	0.425708
155    	0.1240000	0.0562578	0.192507	0.0987751	0.149345	0.0540031	0.0659208	0.21602	0.401872
156    	0.1248000	0.0552915	0.197016	0.0994193	0.15321	0.0459505	0.0862132	0.187997	0.370951
157    	0.1256000	0.0511041	0.193473	0.0974867	0.157075	0.025336	0.101996	0.155787	0.330044
158    	0.1264000	0.0469168	0.193473	0.0978088	0.159652	0.00214475	0.116169	0.11327	0.281729
159    	0.1272000	0.0424074	0.19154	0.0968425	0.16545	-0.0091288	0.127764	0.0778386	0.225361
160    	0.1280000	0.034677	0.190574	0.0978088	0.167061	-0.0355411	0.132596	0.0353212	0.169315
161    	0.1288000	0.0311339	0.187353	0.0981309	0.169637	-0.0593766	0.13324	-0.0113835	0.106828
162    	0.1296000	0.0259802	0.170282	0.0990972	0.172214	-0.0613092	0.129053	-0.0545451	0.04434
163    	0.1304000	0.0246918	0.176402	0.098453	0.175757	-0.0767701	0.121322	-0.0980288	-0.0146045
164    	0.1312000	0.0166393	0.186387	0.0990972	0.176402	-0.0851447	0.107794	-0.137969	-0.0783806
165    	0.1320000	0.012452	0.178012	0.100064	0.182521	-0.10737	0.0904005	-0.17791	-0.140868
166    	0.1328000	0.00890887	0.173181	0.100064	0.181233	-0.113812	0.0691418	-0.209476	-0.196592
167    	0.1336000	0.00568786	0.170604	0.100064	0.182521	-0.119287	0.0482052	-0.241364	-0.250061
168    	0.1344000	0.00182265	0.168027	0.103929	0.182844	-0.121542	0.0217929	-0.265522	-0.298698
169    	0.1352000	0.000856342	0.161907	0.103285	0.18542	-0.118643	-0.00236467	-0.284203	-0.341215
170    	0.1360000	-0.00333098	0.15933	0.104251	0.185098	-0.113168	-0.0307096	-0.29741	-0.378901
171    	0.1368000	-0.00365308	0.157075	0.102962	0.185098	-0.107692	-0.0555114	-0.304496	-0.410145
172    	0.1376000	-0.00719619	0.154499	0.10264	0.18381	-0.095452	-0.0845005	-0.304818	-0.434625
173    	0.1384000	-0.00687409	0.151922	0.106506	0.184132	-0.0835342	-0.109624	-0.301597	-0.449764
174    	0.1392000	-0.0088067	0.152244	0.101352	0.184132	-0.0683954	-0.13958	-0.291934	-0.455883
175    	0.1400000	-0.00622989	0.157075	0.105861	0.182844	-0.0490694	-0.169535	-0.278083	-0.452662
176    	0.1408000	-0.00526358	0.153532	0.112303	0.181877	-0.0345748	-0.193049	-0.259079	-0.442355
177    	0.1416000	-0.000754165	0.15321	0.106506	0.181555	-0.0158929	-0.215596	-0.234922	-0.421741
178    	0.1424000	0.000856342	0.15321	0.106828	0.177368	0.00311105	-0.235244	-0.205611	-0.388242
179    	0.1432000	0.00536576	0.156753	0.0945878	0.175113	0.0198603	-0.250061	-0.1734	-0.356354
180    	0.1440000	0.0101973	0.159974	0.105539	0.172214	0.028235	-0.261334	-0.136681	-0.314803
181    	0.1448000	0.0137404	0.163195	0.10715	0.17157	0.0517484	-0.268098	-0.0993172	-0.266166
182    	0.1456000	0.0192161	0.165128	0.116813	0.167383	0.0707523	-0.271319	-0.063886	-0.213985
183    	0.1464000	0.0246918	0.171248	0.10103	0.16545	0.0804154	-0.267454	-0.0226571	-0.157618
184    	0.1472000	0.0292013	0.172858	0.10103	0.162873	0.0942657	-0.251349	0.0150288	-0.0973846
185    	0.1480000	0.0340328	0.178334	0.103285	0.163518	0.104251	-0.245551	0.0520705	-0.0381179
186    	0.1488000	0.0362875	0.180589	0.103607	0.16384	0.111981	-0.229124	0.0839585	0.0224371
187    	0.1496000	0.0362875	0.190252	0.10103	0.161263	0.118101	-0.209476	0.120678	0.079127
188    	0.1504000	0.0417632	0.19154	0.0997414	0.159652	0.121966	-0.185962	0.1516	0.136139
189    	0.1512000	0.0430516	0.19154	0.0997414	0.144836	0.117779	-0.156007	0.176724	0.187997
190    	0.1520000	0.04434	0.194439	0.0923331	0.156109	0.115524	-0.125085	0.19766	0.236957
191    	0.1528000	0.0417632	0.194117	0.0929773	0.159008	0.10715	-0.0906204	0.213443	0.277863
192    	0.1536000	0.0469168	0.198627	0.0923331	0.159008	0.0981309	-0.0551893	0.221818	0.315227
193    	0.1544000	0.0424074	0.200559	0.0904005	0.160619	0.0852469	-0.0181476	0.22826	0.345827
194    	0.1552000	0.0433737	0.200881	0.0891121	0.159008	0.0707523	0.0192161	0.232769	0.367085
195    	0.1560000	0.0446621	0.199915	0.0875016	0.156753	0.0549694	0.0549694	0.229548	0.382868
196    	0.1568000	0.0440179	0.201525	0.0849248	0.155143	0.0385422	0.0884679	0.216664	0.38931
197    	0.1576000	0.0427295	0.207001	0.0849248	0.156753	0.0143846	0.120356	0.206679	0.392209
198    	0.1584000	0.0420853	0.199593	0.0826701	0.155787	0.00117844	0.147412	0.188641	0.383835
199    	0.1592000	0.0427295	0.197016	0.0842806	0.154499	-0.019436	0.172858	0.165128	0.372239
200    	0.1600000	0.0369317	0.193795	0.0836364	0.158042	-0.0361853	0.193151	0.140004	0.347759
201    	0.1608000	0.0356433	0.18993	0.0849248	0.154821	-0.0561556	0.211188	0.114558	0.320703
202    	0.1616000	0.028235	0.186709	0.0865353	0.153532	-0.0748375	0.219885	0.0817038	0.285272
