Scan Rate:  1250
Scans Per Frame:  10
Total Scans:  18870
ZP: 0 	 TP: 0
Number of Channels:  8
Scaled:  No
Scale Factor:     	1	1	1	1	1	1	1	1
Offset:           	0	0	0	0	0	0	0	0
Color:           	255,0,0	0,255,0	0,0,255	255,255,0	255,0,255	0,255,255	255,128,0	128,255,0
Label:            	Channel0	Channel1	Channel2	Channel3	Channel4	Channel5	Channel6	Channel7
Units:            	Volts	Volts	Volts	Volts	Volts	Volts	Volts	Volts
Index      Time   	Ch.00	Ch.01	Ch.02	Ch.03	Ch.04	Ch.05	Ch.06	Ch.07
0      	0.0000000	-0.112523	-0.0931973	-0.0278107	-0.112201	-0.031998	-0.0429494	0.0462726	-0.0925531
1      	0.0008000	-0.115744	-0.0922309	-0.0290991	-0.108658	-0.0426273	-0.0400505	0.0414411	-0.0993172
2      	0.0016000	-0.117355	-0.0922309	-0.028777	-0.108014	-0.0464926	-0.0332864	0.0366096	-0.107692
3      	0.0024000	-0.119932	-0.0899762	-0.0300654	-0.106403	-0.0571219	-0.0284549	0.0349991	-0.110913
4      	0.0032000	-0.121542	-0.0845005	-0.0303875	-0.104149	-0.0748375	-0.0200802	0.0353212	-0.112523
5      	0.0040000	-0.122186	-0.0906204	-0.0294212	-0.101572	-0.0777364	-0.00655199	0.0366096	-0.113168
6      	0.0048000	-0.123475	-0.0909425	-0.0365074	-0.0996393	-0.0835342	0.00053424	0.0369317	-0.109947
7      	0.0056000	-0.112845	-0.0896541	-0.0313538	-0.10125	-0.0919088	0.012452	0.0298455	-0.106726
8      	0.0064000	-0.124763	-0.0783806	-0.0303875	-0.0964183	-0.100283	0.0198603	0.0407969	-0.100928
9      	0.0072000	-0.127018	-0.0870773	-0.0310317	-0.0883657	-0.104793	0.0359654	0.0401527	-0.0944857
10     	0.0080000	-0.126052	-0.0867552	-0.031998	-0.0960962	-0.108658	0.0491715	0.0398306	-0.086111
11     	0.0088000	-0.127018	-0.0854668	-0.0374737	-0.0944857	-0.114134	0.0626998	0.0414411	-0.0790248
12     	0.0096000	-0.126374	-0.0799911	-0.0316759	-0.0941636	-0.117677	0.0749396	0.0436958	-0.0683954
13     	0.0104000	-0.124763	-0.0825679	-0.035219	-0.095452	-0.116711	0.0955541	0.0472389	-0.057444
14     	0.0112000	-0.124119	-0.0838563	-0.0423052	-0.095452	-0.118965	0.101674	0.0511041	-0.0455263
15     	0.0120000	-0.120898	-0.0825679	-0.0371516	-0.0880436	-0.118321	0.112625	0.0520705	-0.0310317
16     	0.0128000	-0.124119	-0.0845005	-0.0371516	-0.104471	-0.118321	0.122289	0.0668871	-0.0152487
17     	0.0136000	-0.125407	-0.0751596	-0.0390842	-0.098673	-0.103504	0.129375	0.0652766	-0.00461938
18     	0.0144000	-0.126696	-0.0838563	-0.031998	-0.100606	-0.109947	0.133562	0.069786	0.0111636
19     	0.0152000	-0.122186	-0.0819237	-0.0387621	-0.101572	-0.111557	0.135173	0.0759059	0.0240476
20     	0.0160000	-0.12122	-0.0816016	-0.0387621	-0.101894	-0.0973846	0.134206	0.0804154	0.0349991
21     	0.0168000	-0.118321	-0.0812795	-0.0387621	-0.104471	-0.0896541	0.130341	0.0858911	0.04434
22     	0.0176000	-0.116711	-0.0822458	-0.0368295	-0.103827	-0.0806353	0.12551	0.0871795	0.0530368
23     	0.0184000	-0.124441	-0.0809574	-0.0358632	-0.0883657	-0.070006	0.11939	0.0813817	0.0607672
24     	0.0192000	-0.105759	-0.0799911	-0.0377958	-0.101894	-0.0651744	0.113592	0.0929773	0.0684976
25     	0.0200000	-0.110591	-0.0793469	-0.0339306	-0.10737	-0.0516462	0.104251	0.0910447	0.0720407
26     	0.0208000	-0.108658	-0.0799911	-0.0323201	-0.106726	-0.0336085	0.0955541	0.0907226	0.0720407
27     	0.0216000	-0.104471	-0.0806353	-0.0329643	-0.109624	-0.0310317	0.0858911	0.0929773	0.0762281
28     	0.0224000	-0.100606	-0.0819237	-0.0297433	-0.111557	-0.019436	0.0775165	0.0923331	0.0749396
29     	0.0232000	-0.0993172	-0.0787027	-0.0278107	-0.111557	-0.0084846	0.0762281	0.0916889	0.0713965
30     	0.0240000	-0.0973846	-0.0816016	-0.0274886	-0.113812	-0.00494148	0.0572241	0.08879	0.0675313
31     	0.0248000	-0.0973846	-0.0841784	-0.0258781	-0.114778	0.00762047	0.0459505	0.0852469	0.0620556
32     	0.0256000	-0.0967404	-0.0873994	-0.0239455	-0.115422	-0.000754165	0.0353212	0.0829922	0.0556136
33     	0.0264000	-0.0967404	-0.0877215	-0.0239455	-0.120576	-0.00687409	0.0259802	0.0807375	0.0485273
34     	0.0272000	-0.0973846	-0.0902983	-0.022335	-0.120898	0.00343315	0.018894	0.0755838	0.0295234
35     	0.0280000	-0.0970625	-0.0980288	-0.0242676	-0.120576	0.00439946	0.0111636	0.0717186	0.0205045
36     	0.0288000	-0.0973846	-0.0973846	-0.0220129	-0.123475	0.00375525	0.00568786	0.0672092	0.00665417
37     	0.0296000	-0.0967404	-0.0951299	-0.0216908	-0.123475	0.00278895	0.00311105	0.0594788	-0.00622989
38     	0.0304000	-0.0944857	-0.095452	-0.0207244	-0.128306	-0.00172047	-0.00204257	0.0552915	-0.0200802
39     	0.0312000	-0.0973846	-0.106403	-0.0210465	-0.141835	-0.0088067	-0.00236467	0.0456284	-0.0342527
40     	0.0320000	-0.0967404	-0.105759	-0.0171813	-0.13346	-0.0133161	-0.00333098	0.0362875	-0.0487473
41     	0.0328000	-0.0980288	-0.106726	-0.0181476	-0.128951	-0.0226571	-0.00268677	0.0333886	-0.0648523
42     	0.0336000	-0.0993172	-0.108336	-0.0158929	-0.127662	-0.0307096	-0.00172047	0.0266244	-0.0816016
43     	0.0344000	-0.100928	-0.10898	-0.00107627	-0.125729	-0.0406947	-0.0094509	0.0205045	-0.0931973
44     	0.0352000	-0.102538	-0.109947	-0.0216908	-0.124441	-0.0484252	0.00568786	0.0140625	-0.105759
45     	0.0360000	-0.100283	-0.111879	-0.0142824	-0.128951	-0.0571219	0.00955308	0.00504366	-0.115744
46     	0.0368000	-0.104793	-0.110913	-0.0171813	-0.122508	-0.0648523	0.0143846	-0.00139837	-0.122831
47     	0.0376000	-0.10898	-0.109624	-0.0168592	-0.120576	-0.0693618	0.018894	-0.00719619	-0.134104
48     	0.0384000	-0.109947	-0.108336	-0.0191139	-0.1151	-0.08289	0.0234034	-0.0110614	-0.129273
49     	0.0392000	-0.114456	-0.109947	-0.0200802	-0.116066	-0.086111	0.028235	-0.0123498	-0.129917
50     	0.0400000	-0.117355	-0.107048	-0.0220129	-0.113168	-0.098673	0.0353212	-0.0149266	-0.128628
51     	0.0408000	-0.120898	-0.10737	-0.0242676	-0.109624	-0.108336	0.0446621	-0.0146045	-0.127984
52     	0.0416000	-0.118321	-0.105437	-0.0245897	-0.110913	-0.114778	0.0562578	-0.0158929	-0.122831
53     	0.0424000	-0.127018	-0.102216	-0.0262002	-0.0983509	-0.119287	0.066565	-0.0123498	-0.116711
54     	0.0432000	-0.121542	-0.0983509	-0.0271665	-0.108336	-0.123153	0.0749396	-0.0100951	-0.107692
55     	0.0440000	-0.11961	-0.0938415	-0.0303875	-0.106403	-0.125085	0.0817038	-0.00461938	-0.0973846
56     	0.0448000	-0.118643	-0.0912646	-0.0297433	-0.103827	-0.123475	0.0875016	0.00053424	-0.0841784
57     	0.0456000	-0.11961	-0.0890099	-0.0387621	-0.103504	-0.123153	0.101674	0.00923098	-0.0712944
58     	0.0464000	-0.120576	-0.0880436	-0.0342527	-0.10286	-0.120254	0.0987751	0.0159951	-0.0558335
59     	0.0472000	-0.11961	-0.0838563	-0.0342527	-0.102216	-0.1151	0.0994193	0.0246918	-0.0410168
60     	0.0480000	-0.119287	-0.0787027	-0.0394063	-0.0993172	-0.109947	0.105861	0.0324223	-0.0271665
61     	0.0488000	-0.119932	-0.0693618	-0.0381179	-0.0980288	-0.110913	0.105861	0.0420853	-0.0113835
62     	0.0496000	-0.11961	-0.0774143	-0.0397284	-0.0964183	-0.0973846	0.104251	0.0514262	0.00246685
63     	0.0504000	-0.118321	-0.0751596	-0.0374737	-0.0960962	-0.0928752	0.10103	0.0617335	0.0127741
64     	0.0512000	-0.120576	-0.0812795	-0.03844	-0.0951299	-0.0832121	0.0968425	0.0717186	0.0266244
65     	0.0520000	-0.119932	-0.0729049	-0.0410168	-0.0935194	-0.0799911	0.0916889	0.0804154	0.0356433
66     	0.0528000	-0.120254	-0.0712944	-0.0413389	-0.0931973	-0.0712944	0.0932994	0.0871795	0.0462726
67     	0.0536000	-0.119932	-0.0680733	-0.041661	-0.0906204	-0.0632418	0.0797712	0.095232	0.0565799
68     	0.0544000	-0.118643	-0.0754817	-0.0406947	-0.0931973	-0.0532567	0.073007	0.103929	0.0659208
69     	0.0552000	-0.117999	-0.0693618	-0.041661	-0.0960962	-0.0452042	0.0659208	0.112303	0.0749396
70     	0.0560000	-0.116066	-0.0667849	-0.0258781	-0.0944857	-0.0336085	0.0598009	0.121966	0.0810596
71     	0.0568000	-0.115422	-0.067107	-0.0519683	-0.095452	-0.0274886	0.0533589	0.124543	0.0875016
72     	0.0576000	-0.11349	-0.0677512	-0.0503578	-0.0977067	-0.0200802	0.0465947	0.12712	0.0891121
73     	0.0584000	-0.112201	-0.0690397	-0.0361853	-0.0996393	-0.0126719	0.0456284	0.129375	0.0881458
74     	0.0592000	-0.111235	-0.0712944	-0.0506799	-0.101572	-0.00590779	0.050782	0.128086	0.0810596
75     	0.0600000	-0.112845	-0.0735491	-0.0400505	-0.104793	-0.000109962	0.0304897	0.126476	0.0759059
76     	0.0608000	-0.109947	-0.0777364	-0.0381179	-0.109947	0.00278895	0.0259802	0.124865	0.0659208
77     	0.0616000	-0.109947	-0.0928752	-0.0377958	-0.109624	0.000856342	0.0208266	0.117135	0.056902
78     	0.0624000	-0.110269	-0.0835342	-0.0419831	-0.111235	0.00278895	0.015673	0.110693	0.0440179
79     	0.0632000	-0.110591	-0.086111	-0.0355411	-0.113168	-0.00333098	0.00987518	0.10264	0.031456
80     	0.0640000	-0.110269	-0.0906204	-0.0371516	-0.114134	-0.0088067	0.00439946	0.0942657	0.0179277
81     	0.0648000	-0.107692	-0.0919088	-0.0326422	-0.115422	-0.0178255	0.00117844	0.0878237	0.00407735
82     	0.0656000	-0.109947	-0.0977067	-0.0300654	-0.118643	-0.0249118	-0.00268677	0.0755838	-0.0091288
83     	0.0664000	-0.110269	-0.0993172	-0.0284549	-0.118321	-0.0358632	-0.00139837	0.0646324	-0.0249118
84     	0.0672000	-0.110269	-0.0999614	-0.0258781	-0.120898	-0.0439157	0.00150054	0.0549694	-0.0381179
85     	0.0680000	-0.103182	-0.10286	-0.0262002	-0.119287	-0.0522904	0.00600996	0.041119	-0.0529346
86     	0.0688000	-0.109302	-0.103827	-0.022335	-0.123797	-0.0587324	0.0101973	0.0317781	-0.0683954
87     	0.0696000	-0.106726	-0.105437	-0.0204023	-0.122508	-0.0658186	0.0192161	0.0217929	-0.0812795
88     	0.0704000	-0.119287	-0.105115	-0.016215	-0.120254	-0.0725828	0.0266244	0.0118078	-0.0951299
89     	0.0712000	-0.10125	-0.110913	-0.0175034	-0.117999	-0.0803132	0.0366096	0.00311105	-0.108014
90     	0.0720000	-0.107048	-0.107048	-0.0191139	-0.124441	-0.0864331	0.0427295	-0.00365308	-0.117033
91     	0.0728000	-0.10125	-0.104149	-0.0139603	-0.118321	-0.095452	0.0530368	-0.0084846	-0.129917
92     	0.0736000	-0.104793	-0.119932	-0.012994	-0.121864	-0.102216	0.060123	-0.0149266	-0.128628
93     	0.0744000	-0.104793	-0.113168	-0.0123498	-0.118965	-0.107048	0.0668871	-0.0178255	-0.128628
94     	0.0752000	-0.105115	-0.110591	-0.0110614	-0.118643	-0.110591	0.0736512	-0.0191139	-0.129595
95     	0.0760000	-0.104471	-0.117677	-0.0139603	-0.118643	-0.110591	0.0781607	-0.0207244	-0.127018
96     	0.0768000	-0.105437	-0.111557	-0.022335	-0.117033	-0.10898	0.0759059	-0.0207244	-0.124119
97     	0.0776000	-0.103827	-0.10898	-0.012994	-0.117033	-0.108014	0.0862132	-0.0187918	-0.119932
98     	0.0784000	-0.106081	-0.10737	-0.0142824	-0.117033	-0.110913	0.0897563	-0.016215	-0.112201
99     	0.0792000	-0.106081	-0.108336	-0.0258781	-0.116066	-0.11349	0.0945878	-0.0220129	-0.10286
100    	0.0800000	-0.105437	-0.111879	-0.0178255	-0.115744	-0.10898	0.0949099	-0.00622989	-0.0928752
101    	0.0808000	-0.105437	-0.104149	-0.0175034	-0.116066	-0.105759	0.0910447	-0.00107627	-0.0799911
102    	0.0816000	-0.106403	-0.101572	-0.0204023	-0.115422	-0.0941636	0.0891121	0.00762047	-0.0677512
103    	0.0824000	-0.10737	-0.110269	-0.0226571	-0.1151	-0.103182	0.0865353	0.0159951	-0.0519683
104    	0.0832000	-0.107692	-0.0964183	-0.0233013	-0.11349	-0.0848226	0.085569	0.0259802	-0.0381179
105    	0.0840000	-0.10737	-0.095452	-0.0236234	-0.113812	-0.0777364	0.0849248	0.0372538	-0.0181476
106    	0.0848000	-0.109302	-0.0922309	-0.0204023	-0.111879	-0.0703281	0.0810596	0.0488494	-0.000432064
107    	0.0856000	-0.115422	-0.0890099	-0.0284549	-0.111235	-0.0619534	0.079127	0.0578683	0.0159951
108    	0.0864000	-0.109624	-0.0883657	-0.0300654	-0.114456	-0.0522904	0.0759059	0.0668871	0.0330665
109    	0.0872000	-0.107692	-0.0845005	-0.0326422	-0.111557	-0.044882	0.0720407	0.0810596	0.0446621
110    	0.0880000	-0.10898	-0.0809574	-0.0426273	-0.108014	-0.0355411	0.0652766	0.0913668	0.0565799
111    	0.0888000	-0.107692	-0.0767701	-0.0371516	-0.110269	-0.0284549	0.0575462	0.101352	0.066565
112    	0.0896000	-0.110913	-0.0770922	-0.0461705	-0.10737	-0.0200802	0.0533589	0.112625	0.0749396
113    	0.0904000	-0.110913	-0.0745154	-0.0374737	-0.105115	-0.0136382	0.0456284	0.120678	0.0833143
114    	0.0912000	-0.110591	-0.0741933	-0.041661	-0.104149	-0.0094509	0.0401527	0.12712	0.0897563
115    	0.0920000	-0.112845	-0.0722607	-0.0474589	-0.104471	-0.00687409	0.0317781	0.132918	0.0958762
116    	0.0928000	-0.105437	-0.0729049	-0.0397284	-0.113812	-0.00558569	0.0263023	0.13485	0.100708
117    	0.0936000	-0.112523	-0.0761259	-0.0432715	-0.107692	-0.00333098	0.0224371	0.138716	0.101674
118    	0.0944000	-0.117033	-0.0719386	-0.044882	-0.104149	-0.00461938	0.0130962	0.136783	0.0997414
119    	0.0952000	-0.116711	-0.0748375	-0.0455263	-0.103504	-0.00300887	0.0192161	0.136139	0.0965204
120    	0.0960000	-0.118965	-0.0741933	-0.0458484	-0.10286	-0.00687409	0.0182498	0.138071	0.0871795
121    	0.0968000	-0.126374	-0.0777364	-0.0442378	-0.103504	-0.0110614	0.0153509	0.132918	0.0778386
122    	0.0976000	-0.122831	-0.0777364	-0.0423052	-0.103182	-0.0133161	0.0130962	0.118745	0.0659208
123    	0.0984000	-0.120254	-0.0777364	-0.0445599	-0.106726	-0.0184697	0.0121299	0.110693	0.053681
124    	0.0992000	-0.119287	-0.0787027	-0.0426273	-0.103504	-0.0249118	0.0140625	0.101674	0.0391864
125    	0.1000000	-0.121542	-0.0803132	-0.0400505	-0.108014	-0.0313538	0.015673	0.0910447	0.0250139
126    	0.1008000	-0.118643	-0.0806353	-0.0390842	-0.109624	-0.0387621	0.0195382	0.0897563	0.00923098
127    	0.1016000	-0.118321	-0.0812795	-0.0371516	-0.103182	-0.0458484	0.0224371	0.0678534	-0.0117056
128    	0.1024000	-0.118643	-0.0841784	-0.0348969	-0.104149	-0.0564777	0.0256581	0.0527147	-0.0233013
129    	0.1032000	-0.117999	-0.0864331	-0.0329643	-0.103182	-0.0600208	0.0301676	0.0462726	-0.0377958
130    	0.1040000	-0.118965	-0.0870773	-0.0348969	-0.111879	-0.0767701	0.0337107	0.0356433	-0.0629197
131    	0.1048000	-0.118965	-0.0880436	-0.0307096	-0.100928	-0.0899762	0.0366096	0.0234034	-0.0709723
132    	0.1056000	-0.118965	-0.0841784	-0.0310317	-0.10125	-0.0973846	0.0382201	0.0130962	-0.0912646
133    	0.1064000	-0.119932	-0.0902983	-0.0265223	-0.101894	-0.102216	0.0430516	0.00117844	-0.103504
134    	0.1072000	-0.119287	-0.0928752	-0.025556	-0.101572	-0.107692	0.0462726	-0.0094509	-0.113812
135    	0.1080000	-0.11961	-0.095452	-0.0242676	-0.103182	-0.112201	0.0482052	-0.0191139	-0.123153
136    	0.1088000	-0.117033	-0.0983509	-0.0233013	-0.10286	-0.125407	0.0504599	-0.0252339	-0.122831
137    	0.1096000	-0.115744	-0.0973846	-0.0207244	-0.104149	-0.116066	0.0549694	-0.0313538	-0.130239
138    	0.1104000	-0.114456	-0.0993172	-0.0229792	-0.105437	-0.1151	0.0581904	-0.0310317	-0.132494
139    	0.1112000	-0.112845	-0.101894	-0.0220129	-0.108658	-0.111235	0.0623777	-0.0307096	-0.129273
140    	0.1120000	-0.112201	-0.101894	-0.0207244	-0.11349	-0.108014	0.069786	-0.0297433	-0.124763
141    	0.1128000	-0.111557	-0.102216	-0.0181476	-0.11349	-0.107048	0.0672092	-0.028777	-0.122831
142    	0.1136000	-0.104793	-0.100928	-0.0216908	-0.113812	-0.0989951	0.0713965	-0.0239455	-0.114778
143    	0.1144000	-0.106081	-0.10286	-0.0200802	-0.117999	-0.098673	0.0720407	-0.0200802	-0.101894
144    	0.1152000	-0.107692	-0.106081	-0.022335	-0.119932	-0.0960962	0.0720407	-0.0139603	-0.0896541
145    	0.1160000	-0.107048	-0.107048	-0.0233013	-0.120898	-0.0931973	0.0720407	-0.00622989	-0.0712944
146    	0.1168000	-0.108658	-0.105759	-0.0213687	-0.122831	-0.0857889	0.0710744	0.00214475	-0.0571219
147    	0.1176000	-0.106403	-0.10737	-0.0187918	-0.125085	-0.0783806	0.066565	0.0108415	-0.0452042
148    	0.1184000	-0.107048	-0.112201	-0.0229792	-0.124441	-0.0706502	0.0662429	0.0208266	-0.0339306
149    	0.1192000	-0.108014	-0.108014	-0.0249118	-0.126696	-0.0613092	0.0643103	0.0240476	-0.0191139
150    	0.1200000	-0.10737	-0.101572	-0.0229792	-0.125085	-0.0506799	0.0655987	0.0436958	-0.00397518
151    	0.1208000	-0.115422	-0.10286	-0.0236234	-0.126696	-0.03844	0.0543252	0.0527147	0.012452
152    	0.1216000	-0.104149	-0.103182	-0.0252339	-0.126052	-0.0274886	0.0523926	0.0652766	0.0272687
153    	0.1224000	-0.103182	-0.0996393	-0.0258781	-0.126052	-0.019436	0.050782	0.0797712	0.0449842
154    	0.1232000	-0.10125	-0.0980288	-0.0249118	-0.124441	-0.0110614	0.0436958	0.0929773	0.0604451
155    	0.1240000	-0.0989951	-0.0973846	-0.0245897	-0.121542	-0.00558569	0.0436958	0.104573	0.0717186
156    	0.1248000	-0.0960962	-0.0919088	-0.0258781	-0.119932	-0.000754165	0.0433737	0.117457	0.0800933
157    	0.1256000	-0.0944857	-0.0877215	-0.0258781	-0.120576	0.00375525	0.0417632	0.124865	0.0875016
158    	0.1264000	-0.0941636	-0.0857889	-0.0200802	-0.11961	0.00504366	0.041119	0.129697	0.0904005
159    	0.1272000	-0.0944857	-0.0880436	-0.0271665	-0.118643	0.00568786	0.0398306	0.134206	0.0923331
160    	0.1280000	-0.0948078	-0.0825679	-0.0262002	-0.117355	0.00182265	0.0456284	0.13485	0.0932994
161    	0.1288000	-0.0964183	-0.0819237	-0.0294212	-0.11349	0.00343315	0.0449842	0.136783	0.0926552
162    	0.1296000	-0.103504	-0.08289	-0.0294212	-0.113812	-0.000109962	0.047561	0.133562	0.0907226
163    	0.1304000	-0.109302	-0.0809574	-0.0284549	-0.11349	-0.00172047	0.0514262	0.128408	0.0868574
164    	0.1312000	-0.108014	-0.0806353	-0.031998	-0.110913	-0.0136382	0.053681	0.126154	0.082348
165    	0.1320000	-0.108658	-0.0816016	-0.0316759	-0.110913	-0.0204023	0.0556136	0.122611	0.0759059
166    	0.1328000	-0.108014	-0.079669	-0.0326422	-0.107692	-0.0274886	0.056902	0.11488	0.0675313
167    	0.1336000	-0.109947	-0.0822458	-0.0342527	-0.107692	-0.047781	0.0588346	0.110049	0.0620556
168    	0.1344000	-0.112845	-0.0819237	-0.0323201	-0.107048	-0.0452042	0.0607672	0.112625	0.0449842
169    	0.1352000	-0.115744	-0.0816016	-0.0336085	-0.104149	-0.0484252	0.060123	0.0968425	0.031456
170    	0.1360000	-0.116711	-0.0816016	-0.0345748	-0.105759	-0.0603429	0.0630219	0.0878237	0.0150288
171    	0.1368000	-0.116066	-0.0835342	-0.0390842	-0.103182	-0.0651744	0.0659208	0.0784828	-0.000109962
172    	0.1376000	-0.118321	-0.0793469	-0.0377958	-0.100928	-0.0738712	0.0704302	0.0691418	-0.0178255
173    	0.1384000	-0.118965	-0.0838563	-0.0345748	-0.0989951	-0.0812795	0.0678534	0.0585125	-0.041661
174    	0.1392000	-0.12122	-0.0838563	-0.0371516	-0.0983509	-0.0873994	0.0720407	0.0449842	-0.0522904
175    	0.1400000	-0.122831	-0.0854668	-0.0368295	-0.0980288	-0.0973846	0.0720407	0.0330665	-0.0651744
176    	0.1408000	-0.126696	-0.0845005	-0.0365074	-0.0970625	-0.104471	0.0771944	0.0224371	-0.08289
177    	0.1416000	-0.12734	-0.089332	-0.0381179	-0.0957741	-0.112523	0.0713965	0.0153509	-0.0948078
178    	0.1424000	-0.128306	-0.0890099	-0.0381179	-0.0964183	-0.117999	0.0707523	0.00762047	-0.106403
179    	0.1432000	-0.130239	-0.0902983	-0.0313538	-0.0973846	-0.119287	0.0701081	-0.000754165	-0.117033
180    	0.1440000	-0.132172	-0.0883657	-0.0358632	-0.0948078	-0.117033	0.0672092	-0.00655199	-0.125729
181    	0.1448000	-0.130561	-0.0912646	-0.0342527	-0.0967404	-0.118965	0.053681	-0.0110614	-0.129273
182    	0.1456000	-0.130239	-0.0922309	-0.0374737	-0.0964183	-0.117355	0.0598009	-0.0149266	-0.131849
183    	0.1464000	-0.128951	-0.0896541	-0.0348969	-0.0970625	-0.112523	0.0530368	-0.0168592	-0.129595
184    	0.1472000	-0.127662	-0.0928752	-0.0313538	-0.0983509	-0.106081	0.0494936	-0.0184697	-0.126052
185    	0.1480000	-0.125085	-0.0912646	-0.035219	-0.0999614	-0.0980288	0.0440179	-0.0178255	-0.120576
186    	0.1488000	-0.122508	-0.0902983	-0.0313538	-0.0993172	-0.0899762	0.0398306	-0.0155708	-0.114778
187    	0.1496000	-0.122831	-0.0919088	-0.0310317	-0.100283	-0.0806353	0.0359654	-0.0110614	-0.106726
188    	0.1504000	-0.118321	-0.0899762	-0.0297433	-0.10286	-0.0751596	0.0330665	-0.0084846	-0.0957741
189    	0.1512000	-0.116066	-0.0912646	-0.0290991	-0.105115	-0.0622755	0.0301676	0.00214475	-0.0822458
190    	0.1520000	-0.114456	-0.0899762	-0.0278107	-0.105437	-0.0529346	0.0279129	0.0121299	-0.0674291
