Scan Rate:  1250
Scans Per Frame:  10
Total Scans:  11840
ZP: 0 	 TP: 0
Number of Channels:  8
Scaled:  No
Scale Factor:     	1	1	1	1	1	1	1	1
Offset:           	0	0	0	0	0	0	0	0
Color:           	255,0,0	0,255,0	0,0,255	255,255,0	255,0,255	0,255,255	255,128,0	128,255,0
Label:            	Channel0	Channel1	Channel2	Channel3	Channel4	Channel5	Channel6	Channel7
Units:            	Volts	Volts	Volts	Volts	Volts	Volts	Volts	Volts
Index      Time   	Ch.00	Ch.01	Ch.02	Ch.03	Ch.04	Ch.05	Ch.06	Ch.07
0      	0.0000000	-0.128306	-0.12734	-0.117033	0.0362875	0.104251	-0.354099	-0.742554	-0.935171
1      	0.0008000	-0.132494	-0.116711	-0.11961	0.0420853	0.0990972	-0.314803	-0.748674	-0.908758
2      	0.0016000	-0.134104	-0.110269	-0.127018	0.0459505	0.08879	-0.271641	-0.739977	-0.865597
3      	0.0024000	-0.13507	-0.103827	-0.128306	0.0485273	0.0762281	-0.22397	-0.716142	-0.805364
4      	0.0032000	-0.135393	-0.095452	-0.137325	0.0498157	0.0591567	-0.169535	-0.680066	-0.730314
5      	0.0040000	-0.137003	-0.0883657	-0.142479	0.0517484	0.0417632	-0.110269	-0.626275	-0.643347
6      	0.0048000	-0.137003	-0.0751596	-0.150531	0.0552915	0.022115	-0.0535788	-0.565398	-0.54575
7      	0.0056000	-0.136359	-0.0703281	-0.154719	0.0552915	0.00214475	0.00375525	-0.490993	-0.436557
8      	0.0064000	-0.133782	-0.063886	-0.161161	0.0504599	-0.025556	0.0655987	-0.408535	-0.322533
9      	0.0072000	-0.130561	-0.0564777	-0.166314	0.0546473	-0.0539009	0.122611	-0.316414	-0.201745
10     	0.0080000	-0.130239	-0.0503578	-0.174689	0.0417632	-0.0787027	0.179623	-0.215918	-0.0706502
11     	0.0088000	-0.130883	-0.0442378	-0.178554	0.0523926	-0.104793	0.231481	-0.111235	0.0462726
12     	0.0096000	-0.130883	-0.0381179	-0.184674	0.0488494	-0.129273	0.281084	-0.00526358	0.170282
13     	0.0104000	-0.128628	-0.0358632	-0.19015	0.0453063	-0.162449	0.32328	0.100708	0.294291
14     	0.0112000	-0.128306	-0.0323201	-0.190794	0.0424074	-0.189828	0.360643	0.204102	0.408959
15     	0.0120000	-0.127984	-0.0307096	-0.194981	0.0385422	-0.214307	0.388344	0.302665	0.51654
16     	0.0128000	-0.123475	-0.0278107	-0.200457	0.0366096	-0.237177	0.416367	0.396397	0.613493
17     	0.0136000	-0.122508	-0.0284549	-0.20239	0.0285571	-0.256503	0.433116	0.474989	0.696917
18     	0.0144000	-0.119932	-0.028777	-0.198524	0.0243697	-0.274218	0.442779	0.55938	0.767779
19     	0.0152000	-0.117355	-0.0294212	-0.204	0.0192161	-0.286458	0.443746	0.625411	0.823825
20     	0.0160000	-0.116066	-0.0294212	-0.202068	0.0140625	-0.292578	0.438914	0.678235	0.863121
21     	0.0168000	-0.108014	-0.0316759	-0.201423	0.0101973	-0.296443	0.427318	0.713022	0.885346
22     	0.0176000	-0.108336	-0.0342527	-0.200457	0.0143846	-0.294189	0.408637	0.748453	0.891144
23     	0.0184000	-0.0948078	-0.0377958	-0.196914	-0.00204257	-0.286136	0.380936	0.76939	0.880193
24     	0.0192000	-0.0989951	-0.0497136	-0.193049	0.00311105	-0.279372	0.346471	0.761015	0.853136
25     	0.0200000	-0.0977067	-0.0435936	-0.188217	0.00182265	-0.261012	0.307175	0.749098	0.806109
26     	0.0208000	-0.0980288	-0.0519683	-0.178554	-0.000432064	-0.253282	0.26047	0.714955	0.743622
27     	0.0216000	-0.0973846	-0.0545451	-0.181131	-0.00107627	-0.239753	0.207323	0.668572	0.66825
28     	0.0224000	-0.0967404	-0.0616313	-0.171146	-0.00107627	-0.215918	0.162873	0.607051	0.578384
29     	0.0232000	-0.0973846	-0.063886	-0.170824	0.000856342	-0.187251	0.109082	0.534578	0.480143
30     	0.0240000	-0.098673	-0.0758038	-0.162449	0.00117844	-0.158906	0.056902	0.447611	0.369018
31     	0.0248000	-0.100606	-0.0774143	-0.152464	0.00278895	-0.129917	0.00729837	0.351625	0.24823
32     	0.0256000	-0.103504	-0.0835342	-0.165992	0.00472156	-0.100606	-0.0294212	0.249841	0.130985
33     	0.0264000	-0.104471	-0.0906204	-0.146988	0.00536576	-0.0706502	-0.0909425	0.139682	0.00697627
34     	0.0272000	-0.109624	-0.0931973	-0.143123	0.00890887	-0.0452042	-0.132494	0.0304897	-0.116066
35     	0.0280000	-0.112845	-0.100928	-0.138614	0.0150288	-0.0155708	-0.173723	-0.0848226	-0.238143
36     	0.0288000	-0.111879	-0.102538	-0.136037	0.0137404	0.0214708	-0.210764	-0.194337	-0.35571
37     	0.0296000	-0.113812	-0.110269	-0.131205	0.0159951	0.0333886	-0.24233	-0.299664	-0.467479
38     	0.0304000	-0.114456	-0.114134	-0.126052	0.0166393	0.0533589	-0.26681	-0.404991	-0.571196
39     	0.0312000	-0.112523	-0.115744	-0.125407	0.0198603	0.0704302	-0.288713	-0.491315	-0.664927
40     	0.0320000	-0.119932	-0.117999	-0.122831	0.022115	0.0926552	-0.304496	-0.572162	-0.74803
41     	0.0328000	-0.122186	-0.125407	-0.120898	0.0250139	0.0961983	-0.310938	-0.641414	-0.814705
42     	0.0336000	-0.125085	-0.130561	-0.118643	0.0269465	0.112303	-0.309972	-0.69907	-0.871073
43     	0.0344000	-0.12734	-0.123153	-0.120576	0.0298455	0.111337	-0.30514	-0.74191	-0.908114
44     	0.0352000	-0.128628	-0.123153	-0.118965	0.0308118	0.104895	-0.298698	-0.773154	-0.926152
45     	0.0360000	-0.132494	-0.122186	-0.121542	0.0330665	0.10103	-0.277761	-0.788292	-0.929051
46     	0.0368000	-0.136681	-0.121864	-0.123797	0.0456284	0.0923331	-0.256181	-0.787326	-0.916489
47     	0.0376000	-0.135393	-0.118965	-0.125729	0.0382201	0.0771944	-0.229124	-0.771865	-0.884601
48     	0.0384000	-0.136681	-0.116389	-0.13346	0.0398306	0.0626998	-0.197558	-0.738367	-0.840151
49     	0.0392000	-0.132172	-0.111879	-0.127984	0.0401527	0.0472389	-0.162771	-0.693917	-0.778951
50     	0.0400000	-0.137969	-0.10898	-0.134104	0.0343549	0.0192161	-0.124441	-0.634972	-0.702935
51     	0.0408000	-0.1457	-0.104149	-0.137325	0.0404748	-0.009773	-0.0835342	-0.558312	-0.617256
52     	0.0416000	-0.13507	-0.0996393	-0.143123	0.0385422	-0.0361853	-0.0400505	-0.475532	-0.519337
53     	0.0424000	-0.131527	-0.0931973	-0.146022	0.0375759	-0.0651744	0.00568786	-0.380512	-0.412722
54     	0.0432000	-0.128951	-0.0870773	-0.151176	0.0343549	-0.0977067	0.0485273	-0.280016	-0.304174
55     	0.0440000	-0.126374	-0.0825679	-0.157618	0.0308118	-0.123153	0.0936215	-0.166958	-0.17791
56     	0.0448000	-0.122831	-0.0767701	-0.160516	0.0279129	-0.154074	0.133884	-0.0567998	-0.0532567
57     	0.0456000	-0.121864	-0.0719386	-0.166636	0.025336	-0.181453	0.173503	0.0675313	0.0723628
58     	0.0464000	-0.117033	-0.0677512	-0.168569	0.0208266	-0.204644	0.210544	0.170926	0.193795
59     	0.0472000	-0.119287	-0.0593766	-0.173723	0.0208266	-0.22397	0.243399	0.280762	0.31877
60     	0.0480000	-0.113812	-0.0580882	-0.185962	0.0147067	-0.242974	0.271421	0.384479	0.429251
61     	0.0488000	-0.108014	-0.0545451	-0.183386	0.0114857	-0.256825	0.29719	0.482076	0.532968
62     	0.0496000	-0.108014	-0.0500357	-0.192082	0.00987518	-0.26842	0.315549	0.568399	0.625411
63     	0.0504000	-0.105759	-0.0484252	-0.18564	0.00794257	-0.277761	0.3294	0.64216	0.705936
64     	0.0512000	-0.106081	-0.0442378	-0.189828	0.00794257	-0.281304	0.337452	0.71109	0.771645
65     	0.0520000	-0.103182	-0.0358632	-0.191438	0.00600996	-0.287102	0.340995	0.751352	0.822214
66     	0.0528000	-0.100283	-0.0368295	-0.193693	0.00600996	-0.281627	0.338741	0.782596	0.857968
67     	0.0536000	-0.100283	-0.0365074	-0.193693	0.00504366	-0.274218	0.343572	0.799989	0.877294
68     	0.0544000	-0.0996393	-0.0377958	-0.193049	0.00439946	-0.266166	0.320703	0.800956	0.879548
69     	0.0552000	-0.0996393	-0.0358632	-0.204966	0.00504366	-0.248772	0.305242	0.787105	0.86602
70     	0.0560000	-0.0993172	-0.0216908	-0.191438	0.00762047	-0.231379	0.285594	0.761982	0.836387
71     	0.0568000	-0.0989951	-0.0358632	-0.192404	0.00955308	-0.210764	0.260792	0.719464	0.791293
72     	0.0576000	-0.0996393	-0.0397284	-0.189506	0.0118078	-0.188539	0.230837	0.665029	0.731704
73     	0.0584000	-0.101894	-0.0410168	-0.183708	0.0130962	-0.163737	0.200559	0.595133	0.652145
74     	0.0592000	-0.104149	-0.0419831	-0.189828	0.0140625	-0.136359	0.164806	0.514286	0.563889
75     	0.0600000	-0.106726	-0.0468147	-0.179843	0.00568786	-0.107048	0.127442	0.428607	0.463716
76     	0.0608000	-0.109624	-0.0497136	-0.176299	0.0192161	-0.0793469	0.0871795	0.320381	0.353235
77     	0.0616000	-0.113168	-0.0506799	-0.174689	0.022115	-0.0567998	0.0459505	0.213121	0.238889
78     	0.0624000	-0.114456	-0.0603429	-0.170824	0.0259802	-0.0242676	0.00826467	0.101996	0.111659
79     	0.0632000	-0.117033	-0.0484252	-0.169213	0.0288792	0.00182265	-0.0329643	-0.0107393	-0.0136382
80     	0.0640000	-0.110269	-0.0706502	-0.163093	0.031456	0.0269465	-0.0642081	-0.120898	-0.137647
81     	0.0648000	-0.125729	-0.0770922	-0.158584	0.0327444	0.0420853	-0.101572	-0.231057	-0.264233
82     	0.0656000	-0.127984	-0.0819237	-0.155363	0.0340328	0.0668871	-0.133138	-0.335418	-0.382444
83     	0.0664000	-0.130561	-0.0767701	-0.148921	0.0369317	0.0755838	-0.162449	-0.432692	-0.493569
84     	0.0672000	-0.132494	-0.0919088	-0.146988	0.0382201	0.095232	-0.190472	-0.518693	-0.595353
85     	0.0680000	-0.135393	-0.0957741	-0.149565	0.0404748	0.106828	-0.211731	-0.595031	-0.688441
86     	0.0688000	-0.150531	-0.100928	-0.138291	0.0395085	0.108116	-0.232023	-0.657519	-0.768644
87     	0.0696000	-0.138291	-0.100283	-0.134426	0.0385422	0.107472	-0.247806	-0.706156	-0.834353
88     	0.0704000	-0.138614	-0.109947	-0.123797	0.0446621	0.104895	-0.258435	-0.746419	-0.884601
89     	0.0712000	-0.137969	-0.112845	-0.129273	0.0398306	0.0987751	-0.265522	-0.765101	-0.916811
90     	0.0720000	-0.136681	-0.115744	-0.125729	0.0453063	0.0871795	-0.265844	-0.774442	-0.93195
91     	0.0728000	-0.137003	-0.117355	-0.125407	0.0491715	0.0752617	-0.259079	-0.763491	-0.929373
92     	0.0736000	-0.130883	-0.121864	-0.122508	0.0449842	0.0588346	-0.248128	-0.739655	-0.910369
93     	0.0744000	-0.132816	-0.12122	-0.121542	0.0375759	0.0398306	-0.229768	-0.703258	-0.874938
94     	0.0752000	-0.132816	-0.119932	-0.122831	0.0366096	0.0153509	-0.208832	-0.65462	-0.822435
95     	0.0760000	-0.130561	-0.123153	-0.123797	0.0308118	-0.0084846	-0.18403	-0.592132	-0.754472
96     	0.0768000	-0.127018	-0.12122	-0.126052	0.0298455	-0.0403726	-0.153752	-0.515472	-0.674268
97     	0.0776000	-0.122186	-0.117033	-0.12734	0.0240476	-0.0661407	-0.122831	-0.429149	-0.581503
98     	0.0784000	-0.122186	-0.116389	-0.129595	0.0201824	-0.0941636	-0.0880436	-0.331874	-0.477786
99     	0.0792000	-0.119932	-0.112201	-0.133782	0.0172835	-0.120576	-0.0497136	-0.225903	-0.365051
100    	0.0800000	-0.116389	-0.108336	-0.135393	0.0143846	-0.143123	-0.0104172	-0.117033	-0.244585
101    	0.0808000	-0.112845	-0.105115	-0.142157	0.0108415	-0.168247	0.034677	-0.00429728	-0.123153
102    	0.0816000	-0.109947	-0.0996393	-0.152786	0.00665417	-0.186285	0.0668871	0.104251	0.00246685
103    	0.0824000	-0.107048	-0.0938415	-0.150853	0.00472156	-0.207865	0.105539	0.210544	0.128086
104    	0.0832000	-0.104149	-0.0890099	-0.155363	0.00053424	-0.222682	0.141293	0.308785	0.250807
105    	0.0840000	-0.108658	-0.0812795	-0.160839	0.00858677	-0.235244	0.176079	0.403161	0.370951
106    	0.0848000	-0.098673	-0.0741933	-0.165992	-0.00397518	-0.249739	0.207323	0.491094	0.486263
107    	0.0856000	-0.095452	-0.0687175	-0.166636	-0.00268677	-0.247162	0.239211	0.570653	0.588691
108    	0.0864000	-0.101894	-0.0658186	-0.179843	-0.00687409	-0.251027	0.264335	0.635718	0.68661
109    	0.0872000	-0.0941636	-0.060665	-0.181453	-0.00365308	-0.248128	0.292036	0.69273	0.760371
110    	0.0880000	-0.0964183	-0.051002	-0.185962	-0.00784039	-0.244907	0.308141	0.733637	0.824469
111    	0.0888000	-0.0931973	-0.047781	-0.188217	-0.00590779	-0.232989	0.32489	0.760693	0.867631
112    	0.0896000	-0.0928752	-0.0387621	-0.193371	-0.00526358	-0.218817	0.338096	0.770678	0.89823
113    	0.0904000	-0.0935194	-0.0500357	-0.196914	-0.00300887	-0.217206	0.346793	0.764236	0.914013
114    	0.0912000	-0.0922309	-0.0329643	-0.196914	-0.00107627	-0.187895	0.346793	0.741689	0.911437
115    	0.0920000	-0.0935194	-0.0307096	-0.198847	0.00246685	-0.168891	0.341639	0.702715	0.891466
116    	0.0928000	-0.0938415	-0.0281328	-0.199491	0.00536576	-0.149887	0.331976	0.651179	0.854102
117    	0.0936000	-0.0977067	-0.0361853	-0.197236	0.0101973	-0.116711	0.313939	0.587081	0.8016
118    	0.0944000	-0.101572	-0.0268444	-0.192727	0.0130962	-0.100606	0.293324	0.513319	0.734603
119    	0.0952000	-0.102538	-0.0294212	-0.197558	0.015673	-0.076448	0.265624	0.427318	0.649246
120    	0.0960000	-0.108658	-0.0278107	-0.195303	0.0234034	-0.0493915	0.235346	0.337774	0.55326
121    	0.0968000	-0.111879	-0.031998	-0.194015	0.0275908	-0.0220129	0.203136	0.240178	0.446322
122    	0.0976000	-0.1151	-0.0368295	-0.190794	0.0298455	-0.00333098	0.166739	0.137427	0.328433
123    	0.0984000	-0.118643	-0.0423052	-0.18403	0.0324223	0.0227592	0.128408	0.0295234	0.205713
124    	0.0992000	-0.121542	-0.0458484	-0.179843	0.0366096	0.0436958	0.0868574	-0.0709723	0.0810596
125    	0.1000000	-0.124441	-0.054223	-0.174045	0.0395085	0.0546473	0.0456284	-0.174367	-0.0423052
126    	0.1008000	-0.12734	-0.0609871	-0.169213	0.0420853	0.0759059	0.00407735	-0.273252	-0.173723
127    	0.1016000	-0.12122	-0.0687175	-0.163093	0.04434	0.0881458	-0.0381179	-0.369882	-0.297732
128    	0.1024000	-0.129917	-0.0741933	-0.155685	0.0469168	0.0926552	-0.0767701	-0.453951	-0.415299
129    	0.1032000	-0.132816	-0.0838563	-0.151176	0.0459505	0.0939436	-0.120576	-0.52739	-0.524813
130    	0.1040000	-0.13507	-0.0857889	-0.140868	0.0485273	0.095232	-0.161161	-0.593743	-0.621766
131    	0.1048000	-0.135715	-0.0928752	-0.138291	0.0511041	0.0945878	-0.194981	-0.6485	-0.709377
132    	0.1056000	-0.135393	-0.0993172	-0.132172	0.0494936	0.0858911	-0.226547	-0.684576	-0.782172
133    	0.1064000	-0.13346	-0.105437	-0.12734	0.0514262	0.073007	-0.250705	-0.708411	-0.841439
134    	0.1072000	-0.151176	-0.111879	-0.122831	0.0337107	0.0614114	-0.269065	-0.720651	-0.886856
135    	0.1080000	-0.134104	-0.117355	-0.12122	0.0462726	0.047561	-0.284525	-0.718074	-0.916167
136    	0.1088000	-0.137003	-0.121864	-0.117677	0.0433737	0.0311339	-0.293544	-0.700681	-0.930339
137    	0.1096000	-0.135715	-0.126052	-0.116066	0.0385422	0.0114857	-0.294189	-0.673302	-0.921965
138    	0.1104000	-0.135393	-0.129595	-0.115422	0.0372538	-0.009773	-0.295799	-0.628208	-0.898451
139    	0.1112000	-0.134104	-0.132816	-0.117999	0.0330665	-0.0361853	-0.289679	-0.572484	-0.856578
140    	0.1120000	-0.133138	-0.134426	-0.1151	0.0285571	-0.0490694	-0.277439	-0.505165	-0.796023
141    	0.1128000	-0.131205	-0.128306	-0.115744	0.0237255	-0.0835342	-0.263589	-0.428183	-0.723228
142    	0.1136000	-0.129917	-0.132494	-0.120576	0.0217929	-0.0989951	-0.223648	-0.343792	-0.632395
143    	0.1144000	-0.124119	-0.129273	-0.125407	0.0153509	-0.116389	-0.216884	-0.253926	-0.533188
144    	0.1152000	-0.121542	-0.12734	-0.129273	0.0118078	-0.134426	-0.172112	-0.15794	-0.42625
145    	0.1160000	-0.119287	-0.123475	-0.133138	0.00697627	-0.149565	-0.134426	-0.057444	-0.308683
146    	0.1168000	-0.102538	-0.11961	-0.138291	-0.0084846	-0.171468	-0.089332	0.0404748	-0.187573
147    	0.1176000	-0.111235	-0.112845	-0.143123	-0.00107627	-0.200135	-0.0432715	0.138716	-0.054223
148    	0.1184000	-0.109302	-0.104149	-0.149565	-0.0094509	-0.202068	0.00568786	0.230837	0.0649545
149    	0.1192000	-0.10737	-0.10125	-0.155041	-0.00461938	-0.215596	0.0540031	0.320703	0.193151
150    	0.1200000	-0.104149	-0.0886878	-0.160516	-0.00494148	-0.225259	0.102962	0.403483	0.316193
151    	0.1208000	-0.105437	-0.0783806	-0.16567	-0.00558569	-0.230412	0.149667	0.479499	0.43376
152    	0.1216000	-0.102216	-0.0709723	-0.1734	-0.00655199	-0.2346	0.19605	0.542309	0.538765
153    	0.1224000	-0.0944857	-0.0722607	-0.179843	-0.00236467	-0.231701	0.2405	0.595455	0.641194
154    	0.1232000	-0.0980288	-0.054223	-0.185962	-0.00236467	-0.222682	0.28495	0.635396	0.727195
155    	0.1240000	-0.0980288	-0.0471368	-0.190472	0.000856342	-0.215274	0.321991	0.661164	0.801922
156    	0.1248000	-0.0983509	-0.0387621	-0.194015	0.00311105	-0.20239	0.358067	0.675981	0.860545
157    	0.1256000	-0.0967404	-0.0313538	-0.198202	0.00246685	-0.187573	0.386412	0.680168	0.902096
158    	0.1264000	-0.100283	-0.0265223	-0.212053	0.0111636	-0.168891	0.405738	0.665029	0.927542
159    	0.1272000	-0.0996393	-0.0216908	-0.204644	0.0127741	-0.148921	0.422487	0.639583	0.93495
160    	0.1280000	-0.0996393	-0.0165371	-0.206577	0.0147067	-0.131205	0.431506	0.601575	0.923998
161    	0.1288000	-0.0999614	-0.0139603	-0.207543	0.0192161	-0.110913	0.431506	0.550683	0.895654
162    	0.1296000	-0.0996393	-0.0123498	-0.206577	0.0201824	-0.0941636	0.428929	0.488518	0.847338
163    	0.1304000	-0.10125	-0.00784039	-0.206255	0.0246918	-0.0703281	0.411535	0.419588	0.785495
164    	0.1312000	-0.102538	-0.0113835	-0.203678	0.0275908	-0.0529346	0.389633	0.342928	0.706258
165    	0.1320000	-0.103504	-0.0191139	-0.201101	0.0308118	-0.0310317	0.361932	0.258537	0.613815
166    	0.1328000	-0.106403	-0.0178255	-0.19788	0.0327444	-0.0110614	0.328433	0.172214	0.510098
167    	0.1336000	-0.109624	-0.0242676	-0.192082	0.034677	0.00536576	0.288815	0.0839585	0.394464
168    	0.1344000	-0.11349	-0.0294212	-0.188539	0.0362875	0.0192161	0.245331	-0.00622989	0.275931
169    	0.1352000	-0.116066	-0.0377958	-0.181453	0.037898	0.034677	0.199271	-0.0964183	0.150311
170    	0.1360000	-0.117999	-0.0464926	-0.175655	0.0401527	0.0424074	0.151278	-0.186285	0.0234034
171    	0.1368000	-0.119932	-0.0532567	-0.167603	0.0407969	0.0501378	0.0926552	-0.268743	-0.104471
172    	0.1376000	-0.107692	-0.0635639	-0.160516	0.0407969	0.053681	0.0372538	-0.346691	-0.232667
173    	0.1384000	-0.11349	-0.0738712	-0.152142	0.0266244	0.0552915	-0.0210465	-0.418842	-0.356676
174    	0.1392000	-0.122186	-0.0845005	-0.144089	0.0269465	0.0546473	-0.0770922	-0.479075	-0.473277
175    	0.1400000	-0.126052	-0.0919088	-0.136359	0.0407969	0.0514262	-0.133138	-0.536087	-0.581181
176    	0.1408000	-0.126374	-0.102538	-0.128628	0.0385422	0.0459505	-0.184674	-0.576672	-0.678778
177    	0.1416000	-0.127018	-0.111235	-0.121864	0.0359654	0.0388643	-0.231701	-0.609526	-0.759625
178    	0.1424000	-0.137647	-0.120254	-0.117999	0.0343549	0.0292013	-0.274218	-0.628208	-0.834353
179    	0.1432000	-0.126696	-0.127984	-0.114456	0.031456	0.0166393	-0.308683	-0.634972	-0.880736
180    	0.1440000	-0.128628	-0.135393	-0.110269	0.0295234	0.00439946	-0.341537	-0.627564	-0.918421
181    	0.1448000	-0.129273	-0.142157	-0.107692	0.0250139	-0.0094509	-0.36344	-0.608882	-0.939036
182    	0.1456000	-0.127662	-0.148277	-0.0980288	0.0205045	-0.0236234	-0.376969	-0.578926	-0.942257
183    	0.1464000	-0.127984	-0.150853	-0.104471	0.0205045	-0.041661	-0.383411	-0.537375	-0.928407
184    	0.1472000	-0.126696	-0.154397	-0.103504	0.0143846	-0.0593766	-0.384055	-0.484228	-0.896196
185    	0.1480000	-0.126696	-0.155685	-0.105759	0.00923098	-0.0809574	-0.372781	-0.424318	-0.846593
186    	0.1488000	-0.122508	-0.155685	-0.10898	0.0192161	-0.0996393	-0.354744	-0.354422	-0.78024
187    	0.1496000	-0.126052	-0.15182	-0.112201	0.00214475	-0.11961	-0.327687	-0.281304	-0.695527
188    	0.1504000	-0.125407	-0.151176	-0.117355	0.00117844	-0.13507	-0.293866	-0.202712	-0.603406
189    	0.1512000	-0.122508	-0.146666	-0.122186	0.000212139	-0.143445	-0.253926	-0.119932	-0.497757
190    	0.1520000	-0.120898	-0.138936	-0.128951	-0.00300887	-0.168247	-0.207543	-0.0355411	-0.385987
191    	0.1528000	-0.122508	-0.129273	-0.14731	-0.00333098	-0.180487	-0.15343	0.0469168	-0.2623
192    	0.1536000	-0.117355	-0.11961	-0.140868	-0.00365308	-0.19015	-0.0980288	0.130663	-0.134426
193    	0.1544000	-0.117355	-0.109302	-0.149887	-0.00397518	-0.197558	-0.0361853	0.2099	-0.00429728
194    	0.1552000	-0.1151	-0.100606	-0.167603	-0.00172047	-0.204	0.0269465	0.283661	0.12712
195    	0.1560000	-0.112523	-0.0854668	-0.163415	0.000856342	-0.203356	0.0833143	0.351625	0.254672
196    	0.1568000	-0.108336	-0.0722607	-0.171468	0.00246685	-0.201745	0.143869	0.411858	0.377071
