Scan Rate:  1250
Scans Per Frame:  10
Total Scans:  12630
ZP: 0 	 TP: 0
Number of Channels:  8
Scaled:  No
Scale Factor:     	1	1	1	1	1	1	1	1
Offset:           	0	0	0	0	0	0	0	0
Color:           	255,0,0	0,255,0	0,0,255	255,255,0	255,0,255	0,255,255	255,128,0	128,255,0
Label:            	Channel0	Channel1	Channel2	Channel3	Channel4	Channel5	Channel6	Channel7
Units:            	Volts	Volts	Volts	Volts	Volts	Volts	Volts	Volts
Index      Time   	Ch.00	Ch.01	Ch.02	Ch.03	Ch.04	Ch.05	Ch.06	Ch.07
0      	0.0000000	-0.112523	-0.0854668	-0.161805	-0.118643	0.0201824	-0.0410168	-0.113812	-0.0464926
1      	0.0008000	-0.112845	-0.0854668	-0.15955	-0.116389	0.0140625	-0.0387621	-0.120898	-0.0458484
2      	0.0016000	-0.113812	-0.0867552	-0.158584	-0.11349	0.00890887	-0.035219	-0.107692	-0.0445599
3      	0.0024000	-0.112845	-0.0873994	-0.158584	-0.115422	0.00729837	-0.0336085	-0.100928	-0.0410168
4      	0.0032000	-0.111557	-0.0841784	-0.15794	-0.115422	-0.0110614	-0.0336085	-0.095452	-0.0358632
5      	0.0040000	-0.113168	-0.0857889	-0.156973	-0.1151	-0.00397518	-0.0307096	-0.0899762	-0.0339306
6      	0.0048000	-0.110591	-0.0841784	-0.149887	-0.1151	-0.00655199	-0.0339306	-0.0845005	-0.0290991
7      	0.0056000	-0.111879	-0.0848226	-0.15794	-0.117677	-0.0126719	-0.0258781	-0.0787027	-0.0245897
8      	0.0064000	-0.114134	-0.0835342	-0.169213	-0.115422	-0.0149266	-0.0252339	-0.0751596	-0.0213687
9      	0.0072000	-0.114134	-0.0848226	-0.159228	-0.122186	-0.0207244	-0.025556	-0.0709723	-0.0178255
10     	0.0080000	-0.109302	-0.0819237	-0.157618	-0.117677	-0.019436	-0.0249118	-0.0667849	-0.0133161
11     	0.0088000	-0.113812	-0.0832121	-0.15955	-0.123797	-0.019436	-0.0268444	-0.0622755	-0.0081625
12     	0.0096000	-0.104471	-0.0838563	-0.159228	-0.122508	-0.0181476	-0.0262002	-0.0587324	-0.00268677
13     	0.0104000	-0.117033	-0.0832121	-0.160516	-0.113168	-0.0142824	-0.0249118	-0.0526125	0.00278895
14     	0.0112000	-0.114778	-0.0867552	-0.161483	-0.1151	-0.012994	-0.022335	-0.0484252	0.0118078
15     	0.0120000	-0.117355	-0.0841784	-0.159872	-0.116389	-0.00655199	-0.0204023	-0.0458484	0.0140625
16     	0.0128000	-0.114778	-0.08289	-0.162449	-0.117677	-0.00687409	-0.0171813	-0.0403726	0.022115
17     	0.0136000	-0.116066	-0.0835342	-0.162771	-0.116711	-0.00204257	-0.0171813	-0.0377958	0.0256581
18     	0.0144000	-0.117033	-0.0845005	-0.161483	-0.117033	0.00117844	-0.0165371	-0.0339306	0.0311339
19     	0.0152000	-0.130239	-0.0848226	-0.163737	-0.117999	0.00182265	-0.0155708	-0.0313538	0.0362875
20     	0.0160000	-0.117999	-0.0835342	-0.163415	-0.117677	0.00343315	-0.0165371	-0.0313538	0.0388643
21     	0.0168000	-0.117033	-0.0809574	-0.164382	-0.117677	0.00439946	-0.0171813	-0.0387621	0.0414411
22     	0.0176000	-0.117999	-0.0799911	-0.165026	-0.118643	0.00536576	-0.0191139	-0.0284549	0.041119
23     	0.0184000	-0.117677	-0.079669	-0.165348	-0.117355	0.00923098	-0.022335	-0.0348969	0.0398306
24     	0.0192000	-0.117033	-0.0745154	-0.164704	-0.116711	0.0101973	-0.0258781	-0.0374737	0.0395085
25     	0.0200000	-0.116711	-0.0809574	-0.165992	-0.117677	0.015673	-0.0262002	-0.0410168	0.0388643
26     	0.0208000	-0.114456	-0.0793469	-0.168247	-0.116066	0.0211487	-0.0300654	-0.0439157	0.037898
27     	0.0216000	-0.110913	-0.0812795	-0.166958	-0.117355	0.0288792	-0.0332864	-0.0493915	0.037898
28     	0.0224000	-0.112845	-0.0777364	-0.166958	-0.114134	0.0317781	-0.0400505	-0.0519683	0.034677
29     	0.0232000	-0.11349	-0.0748375	-0.164704	-0.114134	0.0340328	-0.0406947	-0.0590545	0.0230813
30     	0.0240000	-0.117677	-0.0799911	-0.161805	-0.114134	0.034677	-0.0403726	-0.0642081	0.0208266
31     	0.0248000	-0.112845	-0.0712944	-0.165348	-0.112523	0.0382201	-0.0419831	-0.0719386	0.0140625
32     	0.0256000	-0.113168	-0.0745154	-0.16406	-0.109302	0.0407969	-0.0452042	-0.0790248	0.00472156
33     	0.0264000	-0.113812	-0.0738712	-0.163415	-0.110591	0.0385422	-0.0464926	-0.0845005	0.000212139
34     	0.0272000	-0.11349	-0.0751596	-0.164382	-0.109947	0.0353212	-0.0513241	-0.0912646	-0.00526358
35     	0.0280000	-0.114134	-0.0738712	-0.162771	-0.109624	0.0395085	-0.0522904	-0.0964183	-0.0123498
36     	0.0288000	-0.114456	-0.0783806	-0.162127	-0.11349	0.0395085	-0.0532567	-0.100928	-0.019436
37     	0.0296000	-0.11349	-0.0799911	-0.163093	-0.111235	0.0382201	-0.0529346	-0.107048	-0.0233013
38     	0.0304000	-0.115744	-0.0790248	-0.158262	-0.112845	0.0369317	-0.0516462	-0.109947	-0.0271665
39     	0.0312000	-0.10898	-0.079669	-0.161161	-0.113168	0.0491715	-0.0516462	-0.111879	-0.0307096
40     	0.0320000	-0.116389	-0.0822458	-0.161161	-0.124441	0.031456	-0.0535788	-0.110913	-0.0345748
41     	0.0328000	-0.117033	-0.0825679	-0.160516	-0.117999	0.028235	-0.0493915	-0.109302	-0.0339306
42     	0.0336000	-0.111235	-0.0835342	-0.159872	-0.114134	0.0243697	-0.0474589	-0.110591	-0.0365074
43     	0.0344000	-0.115744	-0.0835342	-0.158906	-0.115422	0.0127741	-0.0471368	-0.111235	-0.0403726
44     	0.0352000	-0.11349	-0.0857889	-0.158584	-0.116711	0.0176056	-0.0468147	-0.10898	-0.051002
45     	0.0360000	-0.115422	-0.086111	-0.15794	-0.116711	0.0114857	-0.0481031	-0.108014	-0.0532567
46     	0.0368000	-0.114134	-0.0841784	-0.156973	-0.108336	0.0101973	-0.0445599	-0.115744	-0.0558335
47     	0.0376000	-0.113168	-0.0873994	-0.158262	-0.114778	0.00858677	-0.0406947	-0.105437	-0.0561556
48     	0.0384000	-0.111879	-0.0873994	-0.15343	-0.118643	0.00472156	-0.0390842	-0.0915867	-0.0548672
49     	0.0392000	-0.114778	-0.0899762	-0.161161	-0.116389	0.00117844	-0.035219	-0.0935194	-0.0551893
50     	0.0400000	-0.1151	-0.0877215	-0.156007	-0.116066	-0.00429728	-0.0329643	-0.0890099	-0.0545451
51     	0.0408000	-0.114134	-0.0870773	-0.158906	-0.117999	-0.00300887	-0.0323201	-0.0864331	-0.0506799
52     	0.0416000	-0.116066	-0.0890099	-0.156329	-0.116389	-0.0113835	-0.0310317	-0.0835342	-0.0513241
53     	0.0424000	-0.117033	-0.0886878	-0.161161	-0.116389	-0.0133161	-0.0307096	-0.0793469	-0.0419831
54     	0.0432000	-0.117033	-0.0867552	-0.161161	-0.116389	-0.0168592	-0.0274886	-0.0748375	-0.0371516
55     	0.0440000	-0.117355	-0.0880436	-0.15955	-0.116711	-0.0178255	-0.0226571	-0.0716165	-0.0297433
56     	0.0448000	-0.132172	-0.0883657	-0.159872	-0.108658	-0.0175034	-0.0233013	-0.0712944	-0.0216908
57     	0.0456000	-0.117677	-0.0886878	-0.161805	-0.118965	-0.0184697	-0.0207244	-0.0648523	-0.0117056
58     	0.0464000	-0.117999	-0.0896541	-0.161161	-0.120898	-0.0168592	-0.0200802	-0.0603429	-0.00268677
59     	0.0472000	-0.117355	-0.089332	-0.161483	-0.119932	-0.0113835	-0.0171813	-0.0506799	0.00568786
60     	0.0480000	-0.117355	-0.0870773	-0.163415	-0.122508	-0.0155708	-0.0146045	-0.0484252	0.0147067
61     	0.0488000	-0.115422	-0.0867552	-0.168569	-0.120254	-0.0142824	-0.0133161	-0.0464926	0.0227592
62     	0.0496000	-0.113168	-0.0845005	-0.165026	-0.119287	-0.0088067	-0.0110614	-0.0442378	0.0198603
63     	0.0504000	-0.112201	-0.0838563	-0.16406	-0.119287	-0.0091288	-0.0117056	-0.0419831	0.0279129
64     	0.0512000	-0.111879	-0.0825679	-0.161161	-0.118643	-0.00300887	-0.0133161	-0.0406947	0.0324223
65     	0.0520000	-0.112523	-0.0767701	-0.163415	-0.117999	-0.000432064	-0.0123498	-0.0394063	0.0372538
66     	0.0528000	-0.112845	-0.0799911	-0.164382	-0.115744	0.00536576	-0.0158929	-0.0406947	0.041119
67     	0.0536000	-0.112201	-0.0960962	-0.162771	-0.115744	0.0137404	-0.0187918	-0.0394063	0.04434
68     	0.0544000	-0.113168	-0.0709723	-0.165348	-0.101572	0.018894	-0.0220129	-0.0406947	0.0482052
69     	0.0552000	-0.112201	-0.067107	-0.163415	-0.112845	0.0208266	-0.0239455	-0.0394063	0.0485273
70     	0.0560000	-0.106403	-0.0758038	-0.163093	-0.111557	0.0266244	-0.0265223	-0.0439157	0.0485273
71     	0.0568000	-0.111557	-0.0745154	-0.162127	-0.109947	0.0285571	-0.0397284	-0.0461705	0.0465947
72     	0.0576000	-0.110591	-0.0719386	-0.160516	-0.108336	0.0321002	-0.0336085	-0.051002	0.0427295
73     	0.0584000	-0.110913	-0.0722607	-0.160839	-0.108014	0.0340328	-0.0361853	-0.0548672	0.0375759
74     	0.0592000	-0.111879	-0.0712944	-0.175011	-0.109302	0.037898	-0.0432715	-0.0564777	0.0330665
75     	0.0600000	-0.112845	-0.0725828	-0.160839	-0.10898	0.041119	-0.0303875	-0.0596987	0.0250139
76     	0.0608000	-0.11349	-0.0716165	-0.163093	-0.108336	0.0456284	-0.0368295	-0.057444	0.0182498
77     	0.0616000	-0.111879	-0.0780585	-0.163737	-0.109947	0.0540031	-0.0406947	-0.0693618	0.00536576
78     	0.0624000	-0.127662	-0.0748375	-0.162127	-0.111557	0.0498157	-0.0390842	-0.0770922	0.00343315
79     	0.0632000	-0.113168	-0.0725828	-0.162771	-0.111557	0.0498157	-0.0435936	-0.0848226	-0.00397518
80     	0.0640000	-0.114134	-0.0774143	-0.162127	-0.110269	0.0459505	-0.0442378	-0.0964183	-0.0136382
81     	0.0648000	-0.115422	-0.0777364	-0.160516	-0.112845	0.041119	-0.044882	-0.0999614	-0.0197581
82     	0.0656000	-0.116066	-0.079669	-0.167925	-0.114778	0.0398306	-0.0426273	-0.106081	-0.0249118
83     	0.0664000	-0.117677	-0.08289	-0.161161	-0.117999	0.0372538	-0.0500357	-0.109624	-0.0303875
84     	0.0672000	-0.116711	-0.0841784	-0.166958	-0.120254	0.0340328	-0.0635639	-0.111557	-0.0377958
85     	0.0680000	-0.118321	-0.0857889	-0.163093	-0.118321	0.0330665	-0.0561556	-0.109624	-0.0435936
86     	0.0688000	-0.118643	-0.0870773	-0.163415	-0.117355	0.0301676	-0.0571219	-0.108658	-0.047781
87     	0.0696000	-0.118965	-0.0877215	-0.160516	-0.117677	0.0279129	-0.0577661	-0.107692	-0.0535788
88     	0.0704000	-0.117355	-0.0886878	-0.163737	-0.119287	0.0224371	-0.0584103	-0.112201	-0.0555114
89     	0.0712000	-0.115422	-0.0960962	-0.158262	-0.115422	0.0163172	-0.0539009	-0.109624	-0.0577661
90     	0.0720000	-0.117677	-0.0899762	-0.160194	-0.117999	0.0140625	-0.0535788	-0.103504	-0.0603429
91     	0.0728000	-0.117677	-0.0899762	-0.167925	-0.118321	0.00633206	-0.051002	-0.101894	-0.0567998
92     	0.0736000	-0.116389	-0.089332	-0.149565	-0.117677	0.00278895	-0.0529346	-0.0967404	-0.0567998
93     	0.0744000	-0.115422	-0.0896541	-0.161483	-0.118965	-0.00268677	-0.0458484	-0.0915867	-0.0555114
94     	0.0752000	-0.1151	-0.0880436	-0.156329	-0.117677	-0.00526358	-0.047781	-0.0864331	-0.0532567
95     	0.0760000	-0.113812	-0.0877215	-0.15794	-0.116066	-0.00719619	-0.035219	-0.0806353	-0.0529346
96     	0.0768000	-0.124441	-0.0886878	-0.156651	-0.110269	-0.0100951	-0.0313538	-0.0738712	-0.0490694
97     	0.0776000	-0.114134	-0.0845005	-0.157295	-0.119287	-0.0165371	-0.0284549	-0.0716165	-0.0426273
98     	0.0784000	-0.122831	-0.0877215	-0.156973	-0.12122	-0.016215	-0.0265223	-0.0693618	-0.0365074
99     	0.0792000	-0.112201	-0.0870773	-0.157618	-0.114778	-0.0158929	-0.0242676	-0.067107	-0.0278107
100    	0.0800000	-0.114778	-0.0870773	-0.157618	-0.118321	-0.0142824	-0.0236234	-0.0651744	-0.0213687
101    	0.0808000	-0.113168	-0.0851447	-0.158584	-0.119932	-0.0155708	-0.022335	-0.0622755	-0.0142824
102    	0.0816000	-0.112523	-0.0870773	-0.158262	-0.118321	-0.0142824	-0.0210465	-0.0577661	-0.00719619
103    	0.0824000	-0.112523	-0.0851447	-0.158906	-0.117033	-0.0120277	-0.016215	-0.0567998	-0.00236467
104    	0.0832000	-0.103504	-0.0841784	-0.159872	-0.130883	-0.0081625	-0.0149266	-0.0561556	0.00504366
105    	0.0840000	-0.110913	-0.08289	-0.159872	-0.118965	-0.00590779	-0.0110614	-0.0435936	0.0121299
106    	0.0848000	-0.111557	-0.08289	-0.160194	-0.117033	-0.00268677	-0.00751829	-0.0458484	0.0169614
107    	0.0856000	-0.111557	-0.0812795	-0.160516	-0.117355	0.00214475	-0.00526358	-0.0429494	0.0240476
108    	0.0864000	-0.108014	-0.0809574	-0.160839	-0.116389	0.00600996	-0.00365308	-0.0410168	0.0269465
109    	0.0872000	-0.110591	-0.0793469	-0.161161	-0.116066	0.00890887	-0.00300887	-0.0397284	0.0317781
110    	0.0880000	-0.109947	-0.076448	-0.160516	-0.116389	0.0137404	-0.00429728	-0.0403726	0.0349991
111    	0.0888000	-0.109302	-0.0806353	-0.161161	-0.111557	0.0150288	-0.0094509	-0.0403726	0.0398306
112    	0.0896000	-0.106403	-0.0716165	-0.160839	-0.115422	0.022115	-0.0110614	-0.0419831	0.0385422
113    	0.0904000	-0.110913	-0.0735491	-0.167603	-0.106726	0.0259802	-0.0187918	-0.0539009	0.0420853
114    	0.0912000	-0.116389	-0.073227	-0.162449	-0.108658	0.0275908	-0.0152487	-0.0461705	0.041119
115    	0.0920000	-0.110269	-0.0696839	-0.160194	-0.112523	0.0288792	-0.0158929	-0.0519683	0.037898
116    	0.0928000	-0.113168	-0.0616313	-0.163093	-0.111557	0.0250139	-0.0191139	-0.0545451	0.0311339
117    	0.0936000	-0.112523	-0.0751596	-0.150209	-0.112201	0.0343549	-0.0281328	-0.0564777	0.0285571
118    	0.0944000	-0.112845	-0.0725828	-0.166958	-0.112845	0.0343549	-0.0229792	-0.0567998	0.0246918
119    	0.0952000	-0.112845	-0.0748375	-0.165992	-0.111235	0.0353212	-0.0239455	-0.0593766	0.0163172
120    	0.0960000	-0.114134	-0.0725828	-0.165992	-0.11349	0.0369317	-0.0249118	-0.0616313	0.0101973
121    	0.0968000	-0.112523	-0.0767701	-0.166958	-0.112523	0.034677	-0.0297433	-0.0709723	0.00697627
122    	0.0976000	-0.118321	-0.0767701	-0.171468	-0.116711	0.0327444	-0.0300654	-0.0677512	0.00278895
123    	0.0984000	-0.120898	-0.0816016	-0.168891	-0.120254	0.0308118	-0.0368295	-0.0735491	-0.000754165
124    	0.0992000	-0.117355	-0.0806353	-0.170179	-0.116389	0.0317781	-0.03844	-0.0761259	-0.00590779
125    	0.1000000	-0.117677	-0.0825679	-0.167281	-0.115422	0.0356433	-0.0400505	-0.0790248	-0.0107393
126    	0.1008000	-0.118965	-0.0835342	-0.166314	-0.117355	0.028235	-0.0410168	-0.0822458	-0.0155708
127    	0.1016000	-0.120898	-0.0848226	-0.165348	-0.116389	0.0246918	-0.0410168	-0.0816016	-0.0200802
128    	0.1024000	-0.118965	-0.0854668	-0.165992	-0.117677	0.0214708	-0.0423052	-0.0812795	-0.0262002
129    	0.1032000	-0.11961	-0.0870773	-0.163737	-0.117355	0.018894	-0.0390842	-0.0835342	-0.0326422
130    	0.1040000	-0.120898	-0.0806353	-0.16406	-0.120576	0.0130962	-0.0381179	-0.0848226	-0.0387621
131    	0.1048000	-0.122186	-0.0886878	-0.161805	-0.117677	0.0127741	-0.0403726	-0.0867552	-0.0435936
132    	0.1056000	-0.117677	-0.0867552	-0.161161	-0.116711	0.00858677	-0.0400505	-0.0857889	-0.0529346
133    	0.1064000	-0.124441	-0.0870773	-0.159228	-0.104149	0.00343315	-0.041661	-0.0957741	-0.0584103
134    	0.1072000	-0.117999	-0.0886878	-0.158262	-0.114778	-0.00139837	-0.0439157	-0.0909425	-0.0590545
135    	0.1080000	-0.116066	-0.0873994	-0.156329	-0.117677	-0.000754165	-0.0432715	-0.0890099	-0.067107
136    	0.1088000	-0.115422	-0.0832121	-0.155363	-0.114778	-0.00719619	-0.0439157	-0.089332	-0.0632418
137    	0.1096000	-0.112845	-0.0857889	-0.15343	-0.115422	-0.0165371	-0.0439157	-0.0880436	-0.054223
138    	0.1104000	-0.113168	-0.0780585	-0.152142	-0.112523	-0.0175034	-0.0429494	-0.0848226	-0.0493915
139    	0.1112000	-0.111557	-0.0835342	-0.144089	-0.111557	-0.0207244	-0.0419831	-0.0941636	-0.0439157
140    	0.1120000	-0.108658	-0.0835342	-0.149243	-0.111879	-0.0216908	-0.041661	-0.0787027	-0.0406947
141    	0.1128000	-0.112523	-0.0931973	-0.153108	-0.111879	-0.0216908	-0.041661	-0.076448	-0.0355411
142    	0.1136000	-0.111235	-0.0841784	-0.15343	-0.112845	-0.0197581	-0.0381179	-0.0729049	-0.031998
143    	0.1144000	-0.112523	-0.0819237	-0.155363	-0.113812	-0.0204023	-0.035219	-0.0709723	-0.0300654
144    	0.1152000	-0.108658	-0.0841784	-0.154719	-0.113812	-0.0158929	-0.0300654	-0.0667849	-0.035219
145    	0.1160000	-0.112523	-0.0851447	-0.157295	-0.1151	-0.0210465	-0.0252339	-0.0651744	-0.0184697
146    	0.1168000	-0.116066	-0.0854668	-0.157618	-0.116066	-0.0100951	-0.0236234	-0.060665	-0.0149266
147    	0.1176000	-0.113812	-0.0845005	-0.151176	-0.117033	-0.00655199	-0.0271665	-0.0584103	-0.0084846
148    	0.1184000	-0.114456	-0.0857889	-0.159872	-0.117033	-0.00300887	-0.016215	-0.0564777	0.00117844
149    	0.1192000	-0.117033	-0.0854668	-0.15955	-0.117355	0.00150054	-0.016215	-0.0516462	0.00987518
150    	0.1200000	-0.1151	-0.0845005	-0.166314	-0.118643	0.00568786	-0.0168592	-0.0490694	0.0179277
151    	0.1208000	-0.114778	-0.0867552	-0.163415	-0.118965	0.00955308	-0.0191139	-0.0458484	0.0240476
152    	0.1216000	-0.113812	-0.0841784	-0.161805	-0.118965	0.0147067	-0.0213687	-0.0452042	0.0295234
153    	0.1224000	-0.114134	-0.0790248	-0.161805	-0.118643	0.0169614	-0.0207244	-0.0410168	0.0330665
154    	0.1232000	-0.112201	-0.0816016	-0.162771	-0.119287	0.0205045	-0.0207244	-0.0387621	0.0398306
155    	0.1240000	-0.110591	-0.0790248	-0.170179	-0.117355	0.0256581	-0.0216908	-0.0400505	0.0436958
156    	0.1248000	-0.111879	-0.0748375	-0.157618	-0.117677	0.0285571	-0.0213687	-0.0423052	0.0482052
157    	0.1256000	-0.112201	-0.0758038	-0.16406	-0.116066	0.0327444	-0.0220129	-0.0406947	0.0501378
158    	0.1264000	-0.112523	-0.0822458	-0.166314	-0.116066	0.0340328	-0.0233013	-0.0429494	0.050782
159    	0.1272000	-0.112523	-0.0748375	-0.16406	-0.112845	0.0349991	-0.0204023	-0.0406947	0.0504599
160    	0.1280000	-0.112845	-0.0758038	-0.166958	-0.114456	0.0391864	-0.0239455	-0.0435936	0.0472389
161    	0.1288000	-0.114778	-0.0741933	-0.163093	-0.113812	0.0353212	-0.0207244	-0.0458484	0.0446621
162    	0.1296000	-0.114134	-0.0774143	-0.162127	-0.11349	0.0349991	-0.0268444	-0.0455263	0.0382201
163    	0.1304000	-0.1151	-0.0735491	-0.165348	-0.112845	0.0333886	-0.0284549	-0.0464926	0.0327444
164    	0.1312000	-0.116389	-0.0761259	-0.164382	-0.114456	0.0321002	-0.0307096	-0.0497136	0.0259802
165    	0.1320000	-0.116389	-0.0774143	-0.165992	-0.1151	0.0369317	-0.031998	-0.0500357	0.0243697
166    	0.1328000	-0.115422	-0.0777364	-0.165348	-0.116389	0.0359654	-0.0365074	-0.0567998	0.0182498
167    	0.1336000	-0.122831	-0.0790248	-0.16567	-0.114778	0.0349991	-0.0397284	-0.0577661	0.0130962
168    	0.1344000	-0.113168	-0.0816016	-0.166958	-0.115744	0.0333886	-0.0410168	-0.0625976	0.00633206
169    	0.1352000	-0.114134	-0.079669	-0.16406	-0.118643	0.0285571	-0.0442378	-0.0661407	-0.000432064
170    	0.1360000	-0.114778	-0.0806353	-0.162771	-0.117033	0.0266244	-0.0442378	-0.073227	-0.0100951
171    	0.1368000	-0.11349	-0.0822458	-0.162771	-0.116389	0.0224371	-0.0435936	-0.0729049	-0.0181476
172    	0.1376000	-0.117033	-0.0819237	-0.158584	-0.117355	0.0118078	-0.0423052	-0.076448	-0.025556
173    	0.1384000	-0.112201	-0.0819237	-0.146344	-0.119287	0.0147067	-0.0435936	-0.0812795	-0.0345748
174    	0.1392000	-0.113812	-0.0832121	-0.153752	-0.116711	0.00794257	-0.0519683	-0.08289	-0.0400505
175    	0.1400000	-0.112201	-0.0841784	-0.158262	-0.116066	0.00568786	-0.0497136	-0.0799911	-0.0455263
176    	0.1408000	-0.114456	-0.0822458	-0.157618	-0.112523	0.00504366	-0.0490694	-0.0819237	-0.0493915
177    	0.1416000	-0.115744	-0.0822458	-0.154074	-0.112845	-0.000109962	-0.0522904	-0.0793469	-0.0558335
178    	0.1424000	-0.114778	-0.0848226	-0.141835	-0.111235	-0.00461938	-0.0532567	-0.0790248	-0.0596987
179    	0.1432000	-0.11349	-0.0835342	-0.154074	-0.112523	-0.00719619	-0.0551893	-0.0803132	-0.0600208
180    	0.1440000	-0.112523	-0.0841784	-0.155363	-0.112523	-0.0081625	-0.0548672	-0.0767701	-0.0645302
181    	0.1448000	-0.116389	-0.0857889	-0.154719	-0.109947	-0.0110614	-0.0535788	-0.0825679	-0.0651744
182    	0.1456000	-0.117355	-0.0845005	-0.153752	-0.114134	-0.0136382	-0.0548672	-0.0806353	-0.0622755
183    	0.1464000	-0.117677	-0.0854668	-0.156973	-0.112523	-0.0149266	-0.051002	-0.0825679	-0.0580882
184    	0.1472000	-0.120576	-0.0864331	-0.163415	-0.110591	-0.0158929	-0.0419831	-0.0812795	-0.0567998
185    	0.1480000	-0.129917	-0.0873994	-0.158584	-0.119287	-0.0139603	-0.0439157	-0.0790248	-0.0513241
186    	0.1488000	-0.112201	-0.0906204	-0.160194	-0.127984	-0.0152487	-0.0403726	-0.0735491	-0.0500357
187    	0.1496000	-0.116066	-0.0870773	-0.160194	-0.119287	-0.0113835	-0.0365074	-0.0777364	-0.0461705
188    	0.1504000	-0.116066	-0.0890099	-0.163415	-0.11961	-0.0117056	-0.0323201	-0.0809574	-0.0419831
189    	0.1512000	-0.115422	-0.0877215	-0.163415	-0.120898	-0.009773	-0.0303875	-0.0719386	-0.0371516
