Scan Rate:  1250
Scans Per Frame:  10
Total Scans:  16790
ZP: 0 	 TP: 0
Number of Channels:  8
Scaled:  No
Scale Factor:     	1	1	1	1	1	1	1	1
Offset:           	0	0	0	0	0	0	0	0
Color:           	255,0,0	0,255,0	0,0,255	255,255,0	255,0,255	0,255,255	255,128,0	128,255,0
Label:            	Channel0	Channel1	Channel2	Channel3	Channel4	Channel5	Channel6	Channel7
Units:            	Volts	Volts	Volts	Volts	Volts	Volts	Volts	Volts
Index      Time   	Ch.00	Ch.01	Ch.02	Ch.03	Ch.04	Ch.05	Ch.06	Ch.07
0      	0.0000000	-0.0741933	-0.116711	-0.0207244	-0.0935194	0.0321002	0.0304897	-0.117677	-0.144089
1      	0.0008000	-0.0716165	-0.124119	-0.0213687	-0.098673	0.025336	-0.00622989	-0.117355	-0.180165
2      	0.0016000	-0.0751596	-0.130239	-0.0139603	-0.100606	0.0198603	-0.0410168	-0.117677	-0.213341
3      	0.0024000	-0.0741933	-0.136359	-0.0171813	-0.106081	0.0147067	-0.0661407	-0.111557	-0.243297
4      	0.0032000	-0.0745154	-0.142479	-0.0117056	-0.110913	0.00858677	-0.095452	-0.104793	-0.26681
5      	0.0040000	-0.076448	-0.147632	-0.012994	-0.112201	0.0121299	-0.117355	-0.098673	-0.292256
6      	0.0048000	-0.0787027	-0.154074	-0.012994	-0.115744	-0.00172047	-0.134104	-0.0870773	-0.302885
7      	0.0056000	-0.0790248	-0.158584	-0.0142824	-0.119287	-0.00622989	-0.146988	-0.0751596	-0.312226
8      	0.0064000	-0.0816016	-0.161805	-0.0126719	-0.127018	-0.00526358	-0.15794	-0.0696839	-0.314481
9      	0.0072000	-0.0845005	-0.166314	-0.0171813	-0.127662	-0.00333098	-0.156651	-0.0519683	-0.309649
10     	0.0080000	-0.0867552	-0.170824	-0.0171813	-0.130883	-0.00494148	-0.161483	-0.0387621	-0.300631
11     	0.0088000	-0.0880436	-0.169213	-0.0329643	-0.132172	-0.00622989	-0.154397	-0.0265223	-0.286136
12     	0.0096000	-0.0912646	-0.167603	-0.0262002	-0.130883	-0.00687409	-0.146988	-0.0175034	-0.263267
13     	0.0104000	-0.0906204	-0.165992	-0.0284549	-0.133138	-0.00622989	-0.127662	-0.0094509	-0.233633
14     	0.0112000	-0.0915867	-0.161805	-0.0358632	-0.132494	-0.00461938	-0.117355	-0.00204257	-0.200457
15     	0.0120000	-0.0941636	-0.164382	-0.0361853	-0.12734	0.00697627	-0.0928752	-0.000432064	-0.166314
16     	0.0128000	-0.0931973	-0.151176	-0.0397284	-0.124119	-0.00107627	-0.0651744	0.00311105	-0.122831
17     	0.0136000	-0.0944857	-0.144733	-0.0423052	-0.122508	0.00343315	-0.0355411	0.00955308	-0.0819237
18     	0.0144000	-0.0951299	-0.13507	-0.0464926	-0.108658	0.00536576	-0.00365308	0.0147067	-0.03844
19     	0.0152000	-0.0960962	-0.127662	-0.051002	-0.109624	0.0105194	0.034677	0.0172835	0.00278895
20     	0.0160000	-0.0960962	-0.117355	-0.054223	-0.105759	0.0137404	0.069786	0.0217929	0.0449842
21     	0.0168000	-0.0993172	-0.10898	-0.0580882	-0.0948078	0.0169614	0.103607	0.0266244	0.0858911
22     	0.0176000	-0.0983509	-0.100606	-0.0616313	-0.0915867	0.0214708	0.142903	0.0304897	0.124221
23     	0.0184000	-0.0970625	-0.0915867	-0.0654965	-0.0845005	0.0269465	0.17769	0.0317781	0.16545
24     	0.0192000	-0.098673	-0.0816016	-0.0706502	-0.0787027	0.0263023	0.210222	0.0343549	0.201848
25     	0.0200000	-0.0967404	-0.073227	-0.0690397	-0.0748375	0.028235	0.239211	0.0349991	0.232125
26     	0.0208000	-0.0944857	-0.0674291	-0.0712944	-0.067107	0.0292013	0.263047	0.0263023	0.261436
27     	0.0216000	-0.0973846	-0.060665	-0.0725828	-0.0664628	0.0279129	0.285272	0.0362875	0.283983
28     	0.0224000	-0.100606	-0.0539009	-0.0741933	-0.0658186	0.0256581	0.303309	0.0362875	0.300088
29     	0.0232000	-0.0977067	-0.0481031	-0.0761259	-0.0616313	0.0224371	0.318126	0.0369317	0.31104
30     	0.0240000	-0.0948078	-0.0455263	-0.0761259	-0.0584103	0.0130962	0.328111	0.0340328	0.315227
31     	0.0248000	-0.0925531	-0.0435936	-0.0790248	-0.0435936	0.0192161	0.328755	0.0308118	0.312328
32     	0.0256000	-0.0970625	-0.0390842	-0.0780585	-0.0564777	0.0185719	0.327789	0.0279129	0.303632
33     	0.0264000	-0.086111	-0.0426273	-0.076448	-0.0580882	0.0179277	0.321991	0.0240476	0.288815
34     	0.0272000	-0.0912646	-0.0432715	-0.0748375	-0.0580882	0.0169614	0.307819	0.0205045	0.266912
35     	0.0280000	-0.0906204	-0.0487473	-0.0873994	-0.0590545	0.0159951	0.299122	0.0150288	0.243399
36     	0.0288000	-0.0993172	-0.051002	-0.0696839	-0.0625976	0.0118078	0.266268	0.0101973	0.212155
37     	0.0296000	-0.0915867	-0.0593766	-0.067107	-0.0645302	0.0101973	0.237923	0.00278895	0.172858
38     	0.0304000	-0.0825679	-0.0664628	-0.0661407	-0.0677512	0.00439946	0.210222	-0.00300887	0.131307
39     	0.0312000	-0.0938415	-0.073227	-0.0590545	-0.0712944	0.00150054	0.176724	-0.00590779	0.0974867
40     	0.0320000	-0.0951299	-0.0890099	-0.0587324	-0.0751596	-0.00204257	0.142581	-0.0091288	0.0523926
41     	0.0328000	-0.0944857	-0.0938415	-0.0535788	-0.0790248	-0.00494148	0.10103	-0.0133161	0.00826467
42     	0.0336000	-0.0977067	-0.103182	-0.0503578	-0.0835342	-0.0088067	0.0626998	-0.0155708	-0.0355411
43     	0.0344000	-0.103504	-0.111235	-0.0452042	-0.0870773	-0.0184697	0.028235	-0.0181476	-0.0803132
44     	0.0352000	-0.098673	-0.121864	-0.041661	-0.0948078	-0.0146045	-0.00655199	-0.0229792	-0.12122
45     	0.0360000	-0.0993172	-0.129917	-0.0371516	-0.0973846	-0.019436	-0.03844	-0.025556	-0.159228
46     	0.0368000	-0.100283	-0.139902	-0.0345748	-0.104471	-0.0207244	-0.0690397	-0.0290991	-0.196592
47     	0.0376000	-0.0996393	-0.148599	-0.0316759	-0.107692	-0.0226571	-0.0883657	-0.0329643	-0.229768
48     	0.0384000	-0.100283	-0.160194	-0.0294212	-0.112523	-0.0268444	-0.123797	-0.0361853	-0.259079
49     	0.0392000	-0.098673	-0.15794	-0.031998	-0.115422	-0.0262002	-0.144733	-0.0445599	-0.282271
50     	0.0400000	-0.0980288	-0.165026	-0.0252339	-0.120254	-0.0233013	-0.165992	-0.0458484	-0.298698
51     	0.0408000	-0.0944857	-0.166314	-0.0210465	-0.122831	-0.0213687	-0.180165	-0.0503578	-0.313193
52     	0.0416000	-0.0957741	-0.162449	-0.022335	-0.125729	-0.0245897	-0.181775	-0.0567998	-0.31899
53     	0.0424000	-0.0941636	-0.166636	-0.0233013	-0.128951	-0.0210465	-0.187573	-0.0625976	-0.321245
54     	0.0432000	-0.0951299	-0.167281	-0.0226571	-0.126052	-0.0158929	-0.177266	-0.0625976	-0.320923
55     	0.0440000	-0.0902983	-0.166314	-0.025556	-0.12122	-0.0136382	-0.169857	-0.0632418	-0.309327
56     	0.0448000	-0.0925531	-0.156007	-0.0281328	-0.123153	-0.0123498	-0.153108	-0.0661407	-0.293222
57     	0.0456000	-0.0919088	-0.159228	-0.0268444	-0.12122	-0.0081625	-0.13958	-0.0664628	-0.273574
58     	0.0464000	-0.0919088	-0.154719	-0.028777	-0.117677	-0.0117056	-0.104149	-0.0687175	-0.245229
59     	0.0472000	-0.0906204	-0.146344	-0.0316759	-0.111235	-0.00655199	-0.0761259	-0.0635639	-0.211731
60     	0.0480000	-0.0906204	-0.138936	-0.0336085	-0.111235	-0.00172047	-0.044882	-0.0738712	-0.175655
61     	0.0488000	-0.0899762	-0.133138	-0.0348969	-0.103504	0.00343315	-0.0110614	-0.0751596	-0.135715
62     	0.0496000	-0.0902983	-0.122186	-0.035219	-0.0996393	0.0130962	0.0237255	-0.0745154	-0.0922309
63     	0.0504000	-0.0857889	-0.114134	-0.0406947	-0.0948078	0.0153509	0.0604451	-0.0719386	-0.0458484
64     	0.0512000	-0.086111	-0.105759	-0.044882	-0.0886878	0.0214708	0.0955541	-0.0709723	-0.00558569
65     	0.0520000	-0.0841784	-0.0967404	-0.0468147	-0.0867552	0.0292013	0.136139	-0.0616313	0.0391864
66     	0.0528000	-0.0841784	-0.0822458	-0.0500357	-0.079669	0.0362875	0.168671	-0.060665	0.082348
67     	0.0536000	-0.0832121	-0.0793469	-0.0522904	-0.0783806	0.0369317	0.204424	-0.054223	0.123255
68     	0.0544000	-0.0822458	-0.0719386	-0.0567998	-0.0774143	0.0401527	0.235024	-0.0455263	0.162551
69     	0.0552000	-0.0832121	-0.0658186	-0.0590545	-0.0787027	0.0424074	0.262403	-0.0355411	0.199593
70     	0.0560000	-0.0819237	-0.063886	-0.060665	-0.0735491	0.0430516	0.285594	-0.0226571	0.231159
71     	0.0568000	-0.079669	-0.0587324	-0.0642081	-0.0719386	0.0391864	0.305886	-0.0126719	0.254672
72     	0.0576000	-0.0832121	-0.0596987	-0.070006	-0.0725828	0.0353212	0.324568	-0.000432064	0.283661
73     	0.0584000	-0.086111	-0.0555114	-0.0719386	-0.0683954	0.0366096	0.329078	0.00826467	0.300733
74     	0.0592000	-0.0854668	-0.0613092	-0.0777364	-0.0745154	0.0327444	0.334553	0.0176056	0.312972
75     	0.0600000	-0.0873994	-0.0619534	-0.0696839	-0.0722607	0.0311339	0.334553	0.0266244	0.320703
76     	0.0608000	-0.0870773	-0.063886	-0.0703281	-0.0754817	0.0269465	0.325534	0.0362875	0.321347
77     	0.0616000	-0.0899762	-0.0654965	-0.0738712	-0.076448	0.0208266	0.314261	0.0469168	0.316838
78     	0.0624000	-0.0902983	-0.0693618	-0.0687175	-0.0803132	0.0166393	0.296867	0.0562578	0.304598
79     	0.0632000	-0.0909425	-0.0754817	-0.0677512	-0.0899762	0.00858677	0.274965	0.0646324	0.28495
80     	0.0640000	-0.0922309	-0.0822458	-0.067107	-0.0873994	0.00633206	0.24823	0.0707523	0.258537
81     	0.0648000	-0.0925531	-0.0877215	-0.0645302	-0.0902983	-0.000432064	0.214732	0.0765502	0.224717
82     	0.0656000	-0.0925531	-0.0941636	-0.0683954	-0.0931973	-0.00268677	0.18381	0.0797712	0.189286
83     	0.0664000	-0.0957741	-0.100283	-0.0564777	-0.0967404	-0.00719619	0.148379	0.0807375	0.149989
84     	0.0672000	-0.0951299	-0.108336	-0.0567998	-0.105115	-0.0107393	0.112625	0.0868574	0.107794
85     	0.0680000	-0.0948078	-0.116389	-0.0561556	-0.106726	-0.0155708	0.0784828	0.0829922	0.063344
86     	0.0688000	-0.0980288	-0.123797	-0.0481031	-0.104793	-0.0168592	0.0388643	0.0817038	0.0172835
87     	0.0696000	-0.0957741	-0.128951	-0.0490694	-0.10737	-0.0216908	-0.000109962	0.0775165	-0.0284549
88     	0.0704000	-0.098673	-0.135393	-0.0452042	-0.114778	-0.0258781	-0.03844	0.073007	-0.0735491
89     	0.0712000	-0.102216	-0.140868	-0.0426273	-0.115422	-0.0268444	-0.0706502	0.0646324	-0.117355
90     	0.0720000	-0.0993172	-0.1457	-0.0394063	-0.116066	-0.0297433	-0.101572	0.0546473	-0.156329
91     	0.0728000	-0.098673	-0.148921	-0.0336085	-0.117355	-0.025556	-0.126696	0.0446621	-0.195948
92     	0.0736000	-0.0970625	-0.151176	-0.0316759	-0.118321	-0.0229792	-0.148277	0.0301676	-0.230735
93     	0.0744000	-0.0970625	-0.153108	-0.0274886	-0.117033	-0.0220129	-0.168569	0.0179277	-0.261334
94     	0.0752000	-0.0925531	-0.152142	-0.025556	-0.119932	-0.0171813	-0.178554	-0.00300887	-0.284525
95     	0.0760000	-0.0931973	-0.154074	-0.0249118	-0.113812	-0.0175034	-0.18403	-0.0175034	-0.308683
96     	0.0768000	-0.0912646	-0.148599	-0.0236234	-0.111235	-0.0104172	-0.187895	-0.0345748	-0.322856
97     	0.0776000	-0.105759	-0.147632	-0.0200802	-0.116389	-0.0084846	-0.184996	-0.0503578	-0.331874
98     	0.0784000	-0.0919088	-0.144733	-0.0262002	-0.104793	-0.00494148	-0.1734	-0.0690397	-0.33574
99     	0.0792000	-0.089332	-0.13958	-0.0204023	-0.100283	-0.00172047	-0.160839	-0.0838563	-0.330586
100    	0.0800000	-0.089332	-0.136037	-0.0200802	-0.0957741	0.00053424	-0.143767	-0.0993172	-0.325754
101    	0.0808000	-0.0909425	-0.130239	-0.0239455	-0.0928752	0.00472156	-0.119932	-0.110591	-0.305784
102    	0.0816000	-0.0922309	-0.12734	-0.0323201	-0.0880436	0.00923098	-0.102216	-0.120898	-0.284203
103    	0.0824000	-0.0935194	-0.12122	-0.0284549	-0.0790248	0.0143846	-0.0696839	-0.123797	-0.255536
104    	0.0832000	-0.0938415	-0.11349	-0.0313538	-0.0806353	0.0201824	-0.0374737	-0.138614	-0.222682
105    	0.0840000	-0.095452	-0.109624	-0.0348969	-0.0777364	0.0295234	-0.00558569	-0.140868	-0.185318
106    	0.0848000	-0.0973846	-0.10286	-0.0397284	-0.0729049	0.0349991	0.0308118	-0.1457	-0.150209
107    	0.0856000	-0.107048	-0.0983509	-0.0432715	-0.0719386	0.0391864	0.0655987	-0.146022	-0.10898
108    	0.0864000	-0.0977067	-0.0925531	-0.0545451	-0.0677512	0.0414411	0.101352	-0.144733	-0.067107
109    	0.0872000	-0.109624	-0.086111	-0.0532567	-0.0661407	0.0430516	0.13485	-0.136037	-0.0226571
110    	0.0880000	-0.0948078	-0.0809574	-0.0580882	-0.067107	0.0552915	0.168027	-0.12734	0.022115
111    	0.0888000	-0.106403	-0.0777364	-0.063886	-0.0651744	0.0407969	0.197982	-0.116066	0.0643103
112    	0.0896000	-0.0980288	-0.0722607	-0.067107	-0.0629197	0.037898	0.225361	-0.106726	0.106506
113    	0.0904000	-0.0964183	-0.0748375	-0.0719386	-0.0677512	0.0395085	0.24823	-0.0848226	0.146124
114    	0.0912000	-0.101894	-0.0693618	-0.0790248	-0.0725828	0.037898	0.273032	-0.0696839	0.180911
115    	0.0920000	-0.102216	-0.067107	-0.0783806	-0.0725828	0.0337107	0.285272	-0.0490694	0.211833
116    	0.0928000	-0.10737	-0.067107	-0.0799911	-0.076448	0.028235	0.296867	-0.0281328	0.238245
117    	0.0936000	-0.10286	-0.0667849	-0.0835342	-0.0767701	0.0150288	0.301055	-0.00687409	0.253062
118    	0.0944000	-0.101894	-0.0696839	-0.0835342	-0.076448	0.0182498	0.300088	0.0279129	0.277541
119    	0.0952000	-0.104793	-0.0683954	-0.0851447	-0.079669	0.0118078	0.292358	0.0382201	0.288493
120    	0.0960000	-0.103827	-0.0751596	-0.0825679	-0.0854668	0.00729837	0.284305	0.0610893	0.294291
121    	0.0968000	-0.0951299	-0.0790248	-0.0819237	-0.0851447	0.00117844	0.271099	0.0800933	0.293324
122    	0.0976000	-0.10286	-0.0812795	-0.0806353	-0.0899762	-0.00461938	0.252417	0.101674	0.287526
123    	0.0984000	-0.100283	-0.0886878	-0.0761259	-0.0919088	-0.0113835	0.231803	0.11939	0.275287
124    	0.0992000	-0.0993172	-0.0931973	-0.070006	-0.0973846	-0.0139603	0.208934	0.135495	0.259182
125    	0.1000000	-0.0960962	-0.0970625	-0.0661407	-0.0967404	-0.0178255	0.182521	0.149667	0.238889
126    	0.1008000	-0.0935194	-0.098673	-0.0616313	-0.0999614	-0.0220129	0.1516	0.157398	0.214732
127    	0.1016000	-0.0902983	-0.100928	-0.0564777	-0.103827	-0.0265223	0.119712	0.165128	0.183166
128    	0.1024000	-0.0886878	-0.110913	-0.0490694	-0.104471	-0.0332864	0.0829922	0.166094	0.147735
129    	0.1032000	-0.0822458	-0.128306	-0.0406947	-0.109947	-0.0397284	0.0552915	0.166094	0.110371
130    	0.1040000	-0.0809574	-0.122831	-0.0377958	-0.111235	-0.0455263	0.0111636	0.162229	0.0717186
131    	0.1048000	-0.079669	-0.127018	-0.0332864	-0.11349	-0.0487473	-0.0200802	0.159008	0.0266244
132    	0.1056000	-0.0767701	-0.133782	-0.028777	-0.10737	-0.0513241	-0.0481031	0.137749	-0.0139603
133    	0.1064000	-0.0745154	-0.137003	-0.0249118	-0.115422	-0.0432715	-0.0751596	0.126476	-0.0539009
134    	0.1072000	-0.0741933	-0.139902	-0.019436	-0.114134	-0.0458484	-0.0973846	0.107472	-0.0964183
135    	0.1080000	-0.0748375	-0.143123	-0.0165371	-0.113812	-0.0368295	-0.116066	0.0875016	-0.135393
136    	0.1088000	-0.0751596	-0.140868	-0.0136382	-0.11349	-0.0213687	-0.130561	0.0623777	-0.164704
137    	0.1096000	-0.0745154	-0.146022	-0.0104172	-0.112201	-0.0226571	-0.138936	0.0343549	-0.20239
138    	0.1104000	-0.0806353	-0.148599	-0.0104172	-0.111557	-0.0155708	-0.145378	0.00439946	-0.229768
139    	0.1112000	-0.0767701	-0.14731	-0.009773	-0.10898	-0.0091288	-0.146988	-0.0252339	-0.251993
140    	0.1120000	-0.0787027	-0.148921	-0.0126719	-0.10286	-0.00365308	-0.152464	-0.0567998	-0.269387
141    	0.1128000	-0.0783806	-0.146022	-0.0123498	-0.108014	0.00246685	-0.139258	-0.08289	-0.282593
142    	0.1136000	-0.0819237	-0.144089	-0.016215	-0.104793	0.0111636	-0.130561	-0.111557	-0.293544
143    	0.1144000	-0.0838563	-0.13958	-0.0207244	-0.100928	0.0163172	-0.118321	-0.136681	-0.293544
144    	0.1152000	-0.0867552	-0.136681	-0.0123498	-0.0989951	0.0205045	-0.101572	-0.158906	-0.295155
145    	0.1160000	-0.0906204	-0.131205	-0.0216908	-0.0980288	0.0292013	-0.0877215	-0.177588	-0.288069
146    	0.1168000	-0.0902983	-0.128951	-0.0300654	-0.0967404	0.0366096	-0.0658186	-0.191438	-0.275185
147    	0.1176000	-0.0944857	-0.125085	-0.0439157	-0.0944857	0.041119	-0.0406947	-0.20239	-0.256181
148    	0.1184000	-0.0983509	-0.11961	-0.0413389	-0.0919088	0.0549694	-0.0120277	-0.208832	-0.232667
149    	0.1192000	-0.0973846	-0.116389	-0.0458484	-0.0909425	0.0520705	0.0201824	-0.205289	-0.205289
150    	0.1200000	-0.102538	-0.10898	-0.0545451	-0.089332	0.0565799	0.0504599	-0.208187	-0.175977
151    	0.1208000	-0.106726	-0.108336	-0.0603429	-0.0864331	0.0488494	0.0778386	-0.204966	-0.14119
152    	0.1216000	-0.107692	-0.103182	-0.0664628	-0.0841784	0.060123	0.106506	-0.193693	-0.109302
153    	0.1224000	-0.110591	-0.0993172	-0.0706502	-0.0822458	0.0594788	0.141615	-0.182097	-0.0741933
154    	0.1232000	-0.0989951	-0.0970625	-0.0729049	-0.0851447	0.0614114	0.156109	-0.170824	-0.0381179
155    	0.1240000	-0.114134	-0.0960962	-0.0754817	-0.0799911	0.0556136	0.179623	-0.150209	-0.00172047
156    	0.1248000	-0.113812	-0.0902983	-0.0774143	-0.079669	0.0517484	0.194439	-0.129273	0.0353212
157    	0.1256000	-0.104793	-0.0838563	-0.0774143	-0.0783806	0.0459505	0.210866	-0.106726	0.073007
158    	0.1264000	-0.109624	-0.0819237	-0.0770922	-0.076448	0.037898	0.221818	-0.0777364	0.107472
159    	0.1272000	-0.109302	-0.0780585	-0.0787027	-0.0738712	0.0298455	0.235668	-0.0481031	0.140648
160    	0.1280000	-0.107692	-0.0751596	-0.0793469	-0.0716165	0.0185719	0.244687	-0.0178255	0.171892
161    	0.1288000	-0.104793	-0.0748375	-0.0725828	-0.0745154	0.00987518	0.245653	0.0163172	0.197338
162    	0.1296000	-0.102538	-0.0758038	-0.0683954	-0.0745154	0.00343315	0.2405	0.0494936	0.218275
163    	0.1304000	-0.102538	-0.0735491	-0.0722607	-0.0745154	-0.00655199	0.235668	0.082348	0.235024
164    	0.1312000	-0.100283	-0.0745154	-0.0693618	-0.0754817	-0.0123498	0.223106	0.114558	0.246942
165    	0.1320000	-0.095452	-0.076448	-0.0632418	-0.0767701	-0.0213687	0.202814	0.145158	0.254672
166    	0.1328000	-0.101572	-0.0777364	-0.0635639	-0.0767701	-0.0290991	0.186387	0.172536	0.256283
167    	0.1336000	-0.0919088	-0.0729049	-0.0622755	-0.0812795	-0.0358632	0.165128	0.195406	0.254672
168    	0.1344000	-0.0899762	-0.0838563	-0.0539009	-0.08289	-0.044882	0.144191	0.214087	0.244365
169    	0.1352000	-0.0899762	-0.086111	-0.0545451	-0.0832121	-0.0596987	0.121	0.230192	0.22987
170    	0.1360000	-0.0822458	-0.0896541	-0.0481031	-0.0873994	-0.0577661	0.098453	0.243077	0.209578
171    	0.1368000	-0.0835342	-0.095452	-0.0445599	-0.0880436	-0.0613092	0.0752617	0.249196	0.184454
172    	0.1376000	-0.0838563	-0.100928	-0.0442378	-0.0915867	-0.0642081	0.0527147	0.251451	0.155143
173    	0.1384000	-0.0848226	-0.10286	-0.0432715	-0.100283	-0.0642081	0.0317781	0.246942	0.12551
174    	0.1392000	-0.0812795	-0.106726	-0.0400505	-0.0977067	-0.0645302	0.00987518	0.237923	0.0926552
175    	0.1400000	-0.0793469	-0.110269	-0.0300654	-0.102216	-0.0609871	-0.0139603	0.224717	0.0565799
176    	0.1408000	-0.0812795	-0.1151	-0.0355411	-0.102538	-0.0590545	-0.0265223	0.201848	0.0211487
177    	0.1416000	-0.0819237	-0.12122	-0.0355411	-0.104471	-0.0571219	-0.0471368	0.180911	-0.0200802
178    	0.1424000	-0.0793469	-0.125085	-0.0332864	-0.109947	-0.051002	-0.0616313	0.151278	-0.0558335
179    	0.1432000	-0.0851447	-0.129595	-0.0310317	-0.105759	-0.0474589	-0.0745154	0.119712	-0.0919088
180    	0.1440000	-0.0867552	-0.132816	-0.0323201	-0.108014	-0.0387621	-0.0854668	0.0852469	-0.126696
181    	0.1448000	-0.0886878	-0.134104	-0.031998	-0.108658	-0.0307096	-0.0928752	0.0498157	-0.155685
182    	0.1456000	-0.0890099	-0.140546	-0.0310317	-0.0944857	-0.0216908	-0.0970625	0.00375525	-0.183708
183    	0.1464000	-0.0922309	-0.136037	-0.0329643	-0.106081	-0.0239455	-0.0941636	-0.025556	-0.206899
184    	0.1472000	-0.0941636	-0.13958	-0.0278107	-0.107692	0.00117844	-0.0944857	-0.0629197	-0.227191
185    	0.1480000	-0.095452	-0.141835	-0.0345748	-0.105759	0.00568786	-0.0835342	-0.0925531	-0.245873
186    	0.1488000	-0.0957741	-0.140546	-0.0342527	-0.107692	0.0137404	-0.073227	-0.132494	-0.259724
187    	0.1496000	-0.100606	-0.140546	-0.0271665	-0.103182	0.0169614	-0.0596987	-0.164382	-0.271319
188    	0.1504000	-0.100606	-0.136681	-0.0374737	-0.102538	0.0279129	-0.0442378	-0.192727	-0.278406
189    	0.1512000	-0.10125	-0.136681	-0.0397284	-0.100283	0.0385422	-0.0268444	-0.215596	-0.277117
190    	0.1520000	-0.10286	-0.134104	-0.0381179	-0.0996393	0.0469168	-0.00139837	-0.234922	-0.274218
191    	0.1528000	-0.0967404	-0.131205	-0.041661	-0.0967404	0.0527147	0.00536576	-0.247162	-0.264555
