Scan Rate:  1250
Scans Per Frame:  10
Total Scans:  10500
ZP: 0 	 TP: 0
Number of Channels:  8
Scaled:  No
Scale Factor:     	1	1	1	1	1	1	1	1
Offset:           	0	0	0	0	0	0	0	0
Color:           	255,0,0	0,255,0	0,0,255	255,255,0	255,0,255	0,255,255	255,128,0	128,255,0
Label:            	Channel0	Channel1	Channel2	Channel3	Channel4	Channel5	Channel6	Channel7
Units:            	Volts	Volts	Volts	Volts	Volts	Volts	Volts	Volts
Index      Time   	Ch.00	Ch.01	Ch.02	Ch.03	Ch.04	Ch.05	Ch.06	Ch.07
0      	0.0000000	-0.108658	-0.126696	-0.0429494	-0.095452	0.0498157	-0.127662	-0.028777	-0.136681
1      	0.0008000	-0.105759	-0.114778	-0.0452042	-0.102538	0.0417632	-0.109947	0.00407735	-0.0999614
2      	0.0016000	-0.106403	-0.120898	-0.0471368	-0.100606	0.0285571	-0.0915867	0.0333886	-0.0622755
3      	0.0024000	-0.103504	-0.120254	-0.0481031	-0.10286	0.0172835	-0.0725828	0.0649545	-0.0245897
4      	0.0032000	-0.105115	-0.11349	-0.0503578	-0.102538	0.00729837	-0.0545451	0.0965204	0.0118078
5      	0.0040000	-0.10125	-0.105115	-0.0545451	-0.100928	0.00407735	-0.03844	0.124543	0.0494936
6      	0.0048000	-0.101894	-0.104793	-0.0548672	-0.0999614	-0.0117056	-0.019436	0.15321	0.0829922
7      	0.0056000	-0.0993172	-0.103182	-0.0580882	-0.0960962	-0.0187918	-0.00300887	0.176079	0.117135
8      	0.0064000	-0.0973846	-0.0977067	-0.0580882	-0.0944857	-0.0213687	0.012452	0.203136	0.149345
9      	0.0072000	-0.101894	-0.0915867	-0.0609871	-0.0909425	-0.0245897	0.0295234	0.217631	0.179945
10     	0.0080000	-0.0973846	-0.0896541	-0.0603429	-0.0909425	-0.0220129	0.0440179	0.234058	0.210866
11     	0.0088000	-0.0970625	-0.0845005	-0.0616313	-0.0896541	-0.0178255	0.0562578	0.242754	0.231803
12     	0.0096000	-0.104793	-0.0809574	-0.0632418	-0.076448	-0.0136382	0.0678534	0.24662	0.252417
13     	0.0104000	-0.0960962	-0.079669	-0.0629197	-0.0857889	-0.00687409	0.0742954	0.24211	0.262725
14     	0.0112000	-0.0960962	-0.0754817	-0.0629197	-0.0803132	0.000212139	0.0768723	0.235668	0.266268
15     	0.0120000	-0.095452	-0.0729049	-0.0616313	-0.0806353	0.012452	0.0784828	0.224717	0.262725
16     	0.0128000	-0.0915867	-0.0719386	-0.0600208	-0.0812795	0.0217929	0.0752617	0.213121	0.252095
17     	0.0136000	-0.0925531	-0.0712944	-0.0603429	-0.0803132	0.0285571	0.063344	0.19605	0.238889
18     	0.0144000	-0.0928752	-0.0683954	-0.0584103	-0.0799911	0.034677	0.0598009	0.175757	0.221174
19     	0.0152000	-0.0919088	-0.0722607	-0.0571219	-0.079669	0.0485273	0.0485273	0.155465	0.200237
20     	0.0160000	-0.0931973	-0.0729049	-0.0616313	-0.0799911	0.0578683	0.0292013	0.130663	0.176724
21     	0.0168000	-0.098673	-0.0761259	-0.0580882	-0.0819237	0.0713965	0.0227592	0.103929	0.148057
22     	0.0176000	-0.0960962	-0.079669	-0.0584103	-0.0822458	0.0839585	0.00858677	0.0784828	0.117135
23     	0.0184000	-0.0957741	-0.0835342	-0.0590545	-0.0841784	0.0974867	-0.00622989	0.0469168	0.082348
24     	0.0192000	-0.0983509	-0.086111	-0.0564777	-0.0870773	0.10876	-0.0233013	0.0179277	0.0459505
25     	0.0200000	-0.101572	-0.0931973	-0.0558335	-0.0890099	0.123899	-0.0423052	-0.0123498	0.00665417
26     	0.0208000	-0.101894	-0.0964183	-0.0558335	-0.0877215	0.132596	-0.0603429	-0.0413389	-0.0329643
27     	0.0216000	-0.105115	-0.10286	-0.0555114	-0.0919088	0.14097	-0.0783806	-0.0719386	-0.0709723
28     	0.0224000	-0.109947	-0.107692	-0.0513241	-0.0941636	0.148701	-0.0957741	-0.0999614	-0.108336
29     	0.0232000	-0.106726	-0.111879	-0.0481031	-0.0970625	0.1516	-0.114134	-0.125085	-0.145378
30     	0.0240000	-0.104793	-0.113812	-0.0500357	-0.0993172	0.155143	-0.131205	-0.14731	-0.182419
31     	0.0248000	-0.100606	-0.120576	-0.0455263	-0.0993172	0.155143	-0.146666	-0.168569	-0.214952
32     	0.0256000	-0.105437	-0.122508	-0.0426273	-0.098673	0.149989	-0.172434	-0.183386	-0.243941
33     	0.0264000	-0.0960962	-0.123797	-0.0406947	-0.0915867	0.145802	-0.180809	-0.192727	-0.267776
34     	0.0272000	-0.101894	-0.119932	-0.0390842	-0.100283	0.125832	-0.191116	-0.198847	-0.287747
35     	0.0280000	-0.100928	-0.128951	-0.0345748	-0.101572	0.130663	-0.199813	-0.200457	-0.301919
36     	0.0288000	-0.103827	-0.132172	-0.035219	-0.102216	0.124865	-0.205289	-0.198524	-0.311582
37     	0.0296000	-0.0989951	-0.138614	-0.031998	-0.108658	0.111659	-0.208187	-0.189183	-0.315447
38     	0.0304000	-0.086111	-0.136359	-0.0310317	-0.104149	0.104573	-0.208187	-0.176622	-0.317058
39     	0.0312000	-0.0931973	-0.135715	-0.028777	-0.101572	0.0949099	-0.204966	-0.165348	-0.31287
40     	0.0320000	-0.0973846	-0.132172	-0.0284549	-0.0999614	0.0842806	-0.19788	-0.149565	-0.301275
41     	0.0328000	-0.0938415	-0.133138	-0.0303875	-0.105759	0.0749396	-0.188539	-0.132172	-0.28517
42     	0.0336000	-0.0938415	-0.132172	-0.028777	-0.105115	0.0649545	-0.184674	-0.112523	-0.263267
43     	0.0344000	-0.0935194	-0.134748	-0.0358632	-0.105759	0.0556136	-0.170824	-0.0902983	-0.235888
44     	0.0352000	-0.0890099	-0.133138	-0.0278107	-0.104471	0.0436958	-0.143445	-0.067107	-0.204322
45     	0.0360000	-0.0922309	-0.127984	-0.0310317	-0.103504	0.0343549	-0.124763	-0.0413389	-0.167281
46     	0.0368000	-0.089332	-0.124763	-0.0313538	-0.105115	0.0243697	-0.10286	-0.0158929	-0.129595
47     	0.0376000	-0.0912646	-0.121864	-0.0336085	-0.10286	0.0159951	-0.08289	0.0111636	-0.089332
48     	0.0384000	-0.089332	-0.116711	-0.0439157	-0.103827	0.00697627	-0.0609871	0.041119	-0.0481031
49     	0.0392000	-0.0880436	-0.1151	-0.0355411	-0.102216	0.00407735	-0.0423052	0.0668871	-0.00300887
50     	0.0400000	-0.0870773	-0.109624	-0.0390842	-0.0993172	-0.00107627	-0.0249118	0.0913668	0.0327444
51     	0.0408000	-0.0880436	-0.110269	-0.0400505	-0.0999614	-0.00429728	-0.00268677	0.117135	0.0771944
52     	0.0416000	-0.0870773	-0.104471	-0.0471368	-0.0964183	-0.00461938	0.0147067	0.139038	0.114236
53     	0.0424000	-0.089332	-0.100606	-0.0461705	-0.0980288	-0.00784039	0.0308118	0.158042	0.1516
54     	0.0432000	-0.086111	-0.0967404	-0.0500357	-0.0957741	-0.00655199	0.0527147	0.170604	0.18542
55     	0.0440000	-0.0902983	-0.0928752	-0.0539009	-0.0957741	0.00246685	0.0668871	0.181877	0.213121
56     	0.0448000	-0.0912646	-0.0886878	-0.0535788	-0.0941636	0.000212139	0.0836364	0.188641	0.242754
57     	0.0456000	-0.0951299	-0.0890099	-0.0584103	-0.0915867	0.00407735	0.095232	0.195728	0.264979
58     	0.0464000	-0.0951299	-0.0867552	-0.0580882	-0.0909425	0.0134183	0.105217	0.194117	0.28044
59     	0.0472000	-0.0967404	-0.0854668	-0.0629197	-0.0899762	0.0198603	0.10876	0.190574	0.286882
60     	0.0480000	-0.0973846	-0.0822458	-0.0674291	-0.0890099	0.0285571	0.109082	0.184454	0.294613
61     	0.0488000	-0.0999614	-0.0783806	-0.0642081	-0.089332	0.0391864	0.103607	0.173825	0.290425
62     	0.0496000	-0.0989951	-0.0777364	-0.0687175	-0.0886878	0.0456284	0.0961983	0.161585	0.279474
63     	0.0504000	-0.0996393	-0.0767701	-0.0719386	-0.0864331	0.0607672	0.0884679	0.144836	0.267878
64     	0.0512000	-0.0996393	-0.0758038	-0.0712944	-0.0867552	0.0704302	0.0788049	0.128086	0.249519
65     	0.0520000	-0.10898	-0.0767701	-0.0712944	-0.0870773	0.0807375	0.0649545	0.105539	0.225039
66     	0.0528000	-0.100928	-0.0787027	-0.0703281	-0.086111	0.08879	0.0504599	0.0836364	0.19766
67     	0.0536000	-0.101894	-0.0799911	-0.0712944	-0.0857889	0.098453	0.0340328	0.0594788	0.16384
68     	0.0544000	-0.10286	-0.0803132	-0.0680733	-0.0870773	0.104895	0.0114857	0.0369317	0.124221
69     	0.0552000	-0.104793	-0.0851447	-0.067107	-0.0864331	0.111337	-0.00139837	0.0101973	0.0817038
70     	0.0560000	-0.107048	-0.0896541	-0.0661407	-0.0877215	0.113914	-0.0220129	-0.012994	0.0385422
71     	0.0568000	-0.10737	-0.0941636	-0.0616313	-0.0883657	0.116813	-0.0423052	-0.0394063	-0.00397518
72     	0.0576000	-0.107692	-0.103182	-0.0596987	-0.0906204	0.123899	-0.0651744	-0.0645302	-0.0503578
73     	0.0584000	-0.105759	-0.100928	-0.0551893	-0.0902983	0.120034	-0.0851447	-0.0864331	-0.0854668
74     	0.0592000	-0.106081	-0.101894	-0.0471368	-0.0896541	0.125832	-0.107048	-0.111235	-0.130561
75     	0.0600000	-0.103182	-0.105115	-0.0487473	-0.0899762	0.125187	-0.126374	-0.129595	-0.173723
76     	0.0608000	-0.104149	-0.122186	-0.0435936	-0.0909425	0.133884	-0.144411	-0.1457	-0.208187
77     	0.0616000	-0.102216	-0.114134	-0.0365074	-0.0912646	0.120356	-0.156651	-0.158906	-0.241364
78     	0.0624000	-0.0983509	-0.11961	-0.031998	-0.0906204	0.123255	-0.178876	-0.161483	-0.26842
79     	0.0632000	-0.0967404	-0.117677	-0.0284549	-0.0906204	0.107794	-0.188217	-0.173723	-0.289357
80     	0.0640000	-0.0951299	-0.121542	-0.0258781	-0.0880436	0.0997414	-0.197558	-0.176944	-0.307395
81     	0.0648000	-0.0941636	-0.126052	-0.0236234	-0.0902983	0.0926552	-0.198524	-0.175333	-0.320923
82     	0.0656000	-0.0928752	-0.124763	-0.0204023	-0.0915867	0.0846027	-0.204	-0.172434	-0.326721
83     	0.0664000	-0.0915867	-0.112845	-0.0184697	-0.0902983	0.0755838	-0.204	-0.167603	-0.330908
84     	0.0672000	-0.0919088	-0.137969	-0.0181476	-0.0928752	0.0659208	-0.202068	-0.157618	-0.327365
85     	0.0680000	-0.0919088	-0.128306	-0.0113835	-0.0941636	0.0581904	-0.194015	-0.14731	-0.318024
86     	0.0688000	-0.0915867	-0.131849	-0.0197581	-0.0902983	0.0488494	-0.183386	-0.133782	-0.303207
87     	0.0696000	-0.0948078	-0.131527	-0.0204023	-0.0964183	0.041119	-0.172434	-0.115744	-0.282271
88     	0.0704000	-0.0948078	-0.133138	-0.0226571	-0.0983509	0.0340328	-0.158584	-0.0957741	-0.255536
89     	0.0712000	-0.0989951	-0.133782	-0.0358632	-0.0999614	0.0250139	-0.140546	-0.0790248	-0.224937
90     	0.0720000	-0.0980288	-0.133138	-0.0274886	-0.0993172	0.0176056	-0.120898	-0.0567998	-0.192404
91     	0.0728000	-0.10286	-0.131205	-0.0303875	-0.10286	0.012452	-0.0989951	-0.031998	-0.154397
92     	0.0736000	-0.0970625	-0.130883	-0.0371516	-0.106081	0.00665417	-0.0751596	-0.0149266	-0.113168
93     	0.0744000	-0.100928	-0.12734	-0.0394063	-0.105437	0.00278895	-0.0516462	0.00858677	-0.070006
94     	0.0752000	-0.0983509	-0.121864	-0.0458484	-0.107692	0.00246685	-0.0281328	0.0317781	-0.0326422
95     	0.0760000	-0.0983509	-0.11961	-0.0487473	-0.106081	0.00407735	-0.00397518	0.0520705	0.0166393
96     	0.0768000	-0.0822458	-0.114456	-0.0516462	-0.104471	0.00697627	0.0208266	0.0713965	0.0594788
97     	0.0776000	-0.0970625	-0.110269	-0.0555114	-0.106081	-0.00107627	0.0404748	0.0900784	0.110049
98     	0.0784000	-0.0957741	-0.102538	-0.0577661	-0.112201	0.0127741	0.0604451	0.114236	0.144191
99     	0.0792000	-0.0931973	-0.10125	-0.0600208	-0.103827	0.0224371	0.0768723	0.121644	0.182844
100    	0.0800000	-0.102216	-0.0941636	-0.0642081	-0.102538	0.0404748	0.0939436	0.135495	0.215376
101    	0.0808000	-0.0906204	-0.0899762	-0.0645302	-0.095452	0.0398306	0.108116	0.146446	0.243077
102    	0.0816000	-0.0941636	-0.0854668	-0.0667849	-0.0977067	0.0440179	0.118101	0.15321	0.266268
103    	0.0824000	-0.107048	-0.0816016	-0.0680733	-0.103182	0.053681	0.125832	0.156109	0.282695
104    	0.0832000	-0.0951299	-0.0799911	-0.0683954	-0.0928752	0.0630219	0.129053	0.153532	0.295901
105    	0.0840000	-0.0931973	-0.0703281	-0.070006	-0.0912646	0.0759059	0.130019	0.149667	0.304276
106    	0.0848000	-0.095452	-0.0767701	-0.0664628	-0.0902983	0.082348	0.124865	0.142903	0.304276
107    	0.0856000	-0.098673	-0.0745154	-0.0683954	-0.0803132	0.0884679	0.119068	0.128731	0.300411
108    	0.0864000	-0.0957741	-0.0738712	-0.0687175	-0.0864331	0.0965204	0.109404	0.123899	0.288493
109    	0.0872000	-0.0857889	-0.0761259	-0.063886	-0.0854668	0.110049	0.0958762	0.109082	0.273354
110    	0.0880000	-0.0935194	-0.0754817	-0.0648523	-0.0854668	0.109727	0.082348	0.0926552	0.253706
111    	0.0888000	-0.0915867	-0.0787027	-0.0600208	-0.0841784	0.114236	0.0668871	0.0742954	0.225683
112    	0.0896000	-0.0922309	-0.0780585	-0.060665	-0.0867552	0.121322	0.0514262	0.0552915	0.192185
113    	0.0904000	-0.0890099	-0.0816016	-0.0600208	-0.0902983	0.128408	0.0285571	0.0308118	0.155465
114    	0.0912000	-0.0873994	-0.0864331	-0.0571219	-0.0873994	0.131952	0.00987518	0.0108415	0.11488
115    	0.0920000	-0.0877215	-0.0890099	-0.054223	-0.0899762	0.135817	-0.0107393	-0.0120277	0.0739733
116    	0.0928000	-0.0877215	-0.10286	-0.0471368	-0.0912646	0.137427	-0.0345748	-0.0339306	0.0298455
117    	0.0936000	-0.0864331	-0.0967404	-0.0406947	-0.0941636	0.13485	-0.0564777	-0.0545451	-0.0126719
118    	0.0944000	-0.0870773	-0.100283	-0.0423052	-0.0928752	0.136139	-0.0790248	-0.0748375	-0.054223
119    	0.0952000	-0.086111	-0.106726	-0.0365074	-0.0951299	0.134206	-0.103182	-0.0931973	-0.095452
120    	0.0960000	-0.0883657	-0.109624	-0.0336085	-0.0941636	0.130341	-0.122831	-0.111879	-0.134104
121    	0.0968000	-0.0880436	-0.114134	-0.0316759	-0.0951299	0.124865	-0.147954	-0.125407	-0.170179
122    	0.0976000	-0.089332	-0.116389	-0.0278107	-0.089332	0.116491	-0.165348	-0.138291	-0.204322
123    	0.0984000	-0.0886878	-0.12122	-0.0274886	-0.0957741	0.110049	-0.17791	-0.152786	-0.237821
124    	0.0992000	-0.089332	-0.124763	-0.0226571	-0.0941636	0.0990972	-0.187895	-0.163093	-0.264233
125    	0.1000000	-0.0922309	-0.130561	-0.0204023	-0.0970625	0.0862132	-0.196914	-0.163737	-0.288069
126    	0.1008000	-0.0915867	-0.126374	-0.0204023	-0.0977067	0.0842806	-0.201101	-0.175977	-0.303852
127    	0.1016000	-0.0935194	-0.135715	-0.0207244	-0.0977067	0.0655987	-0.201745	-0.175655	-0.316736
128    	0.1024000	-0.0948078	-0.135715	-0.0236234	-0.105115	0.0556136	-0.203356	-0.173078	-0.322533
129    	0.1032000	-0.0957741	-0.139902	-0.0268444	-0.101572	0.050782	-0.198524	-0.168569	-0.320923
130    	0.1040000	-0.0977067	-0.137969	-0.025556	-0.101572	0.0465947	-0.183708	-0.155041	-0.313515
131    	0.1048000	-0.100283	-0.146344	-0.0290991	-0.108336	0.0424074	-0.17791	-0.143445	-0.298376
132    	0.1056000	-0.10125	-0.145378	-0.0281328	-0.110591	0.0366096	-0.15955	-0.128628	-0.279694
133    	0.1064000	-0.101894	-0.144733	-0.0310317	-0.111557	0.0259802	-0.142479	-0.112845	-0.25457
134    	0.1072000	-0.102216	-0.141512	-0.0345748	-0.111879	0.0337107	-0.126052	-0.0941636	-0.219783
135    	0.1080000	-0.10286	-0.139258	-0.0394063	-0.110591	0.0256581	-0.104471	-0.0767701	-0.188861
136    	0.1088000	-0.104793	-0.137003	-0.0400505	-0.10898	0.0263023	-0.0857889	-0.0567998	-0.15343
137    	0.1096000	-0.101894	-0.148599	-0.0413389	-0.109302	0.0240476	-0.0680733	-0.0410168	-0.111879
138    	0.1104000	-0.104471	-0.127662	-0.0452042	-0.110269	0.025336	-0.0471368	-0.0229792	-0.0696839
139    	0.1112000	-0.101894	-0.113812	-0.0481031	-0.106081	0.025336	-0.0245897	-0.00397518	-0.0252339
140    	0.1120000	-0.0996393	-0.116389	-0.051002	-0.102216	0.0285571	-0.00268677	0.0137404	0.0179277
141    	0.1128000	-0.0993172	-0.10898	-0.0516462	-0.098673	0.0327444	0.0195382	0.031456	0.0617335
142    	0.1136000	-0.0977067	-0.10286	-0.0539009	-0.0977067	0.0395085	0.0388643	0.0504599	0.103285
143    	0.1144000	-0.0864331	-0.0941636	-0.0561556	-0.0877215	0.0449842	0.0607672	0.0691418	0.14548
144    	0.1152000	-0.0944857	-0.095452	-0.0577661	-0.0870773	0.0530368	0.079127	0.0839585	0.182199
145    	0.1160000	-0.0973846	-0.0803132	-0.0526125	-0.0867552	0.0588346	0.0981309	0.0981309	0.213121
146    	0.1168000	-0.0928752	-0.0758038	-0.0593766	-0.0812795	0.0659208	0.104895	0.111015	0.2405
147    	0.1176000	-0.0931973	-0.070006	-0.0645302	-0.0780585	0.0710744	0.111981	0.124221	0.262725
148    	0.1184000	-0.0960962	-0.0664628	-0.0761259	-0.0774143	0.0762281	0.123899	0.130985	0.279152
149    	0.1192000	-0.0877215	-0.0648523	-0.0654965	-0.0761259	0.0907226	0.122611	0.133562	0.292358
150    	0.1200000	-0.095452	-0.0625976	-0.0683954	-0.0819237	0.085569	0.11939	0.134528	0.295257
151    	0.1208000	-0.0922309	-0.0632418	-0.0774143	-0.0767701	0.0897563	0.118423	0.130019	0.302343
152    	0.1216000	-0.0922309	-0.0625976	-0.0619534	-0.0761259	0.0936215	0.113914	0.126154	0.299766
153    	0.1224000	-0.0948078	-0.0629197	-0.0680733	-0.0799911	0.0961983	0.105217	0.117779	0.289781
154    	0.1232000	-0.0896541	-0.0667849	-0.0693618	-0.0716165	0.098453	0.0929773	0.108116	0.27432
155    	0.1240000	-0.0935194	-0.0661407	-0.0690397	-0.0822458	0.105217	0.0817038	0.0981309	0.253384
156    	0.1248000	-0.0912646	-0.0709723	-0.0703281	-0.086111	0.105217	0.0620556	0.0836364	0.227294
157    	0.1256000	-0.0902983	-0.0741933	-0.0651744	-0.0877215	0.105861	0.0552915	0.0684976	0.19605
158    	0.1264000	-0.089332	-0.0767701	-0.0616313	-0.0880436	0.117135	0.0382201	0.0485273	0.161263
159    	0.1272000	-0.0899762	-0.0819237	-0.0600208	-0.0912646	0.111659	0.0182498	0.0330665	0.122289
160    	0.1280000	-0.0883657	-0.0870773	-0.0545451	-0.0915867	0.109082	-0.00461938	0.00858677	0.0807375
161    	0.1288000	-0.0883657	-0.0931973	-0.0545451	-0.0944857	0.108438	-0.0290991	-0.0107393	0.0362875
162    	0.1296000	-0.089332	-0.10125	-0.0481031	-0.0899762	0.101674	-0.0539009	-0.0294212	-0.00687409
163    	0.1304000	-0.0899762	-0.105437	-0.0458484	-0.0941636	0.100386	-0.0770922	-0.0432715	-0.0506799
164    	0.1312000	-0.0906204	-0.110913	-0.0374737	-0.0970625	0.0971646	-0.109947	-0.0603429	-0.095452
165    	0.1320000	-0.0912646	-0.1151	-0.0358632	-0.0977067	0.0936215	-0.126052	-0.0758038	-0.137969
166    	0.1328000	-0.0906204	-0.123153	-0.0300654	-0.0980288	0.0932994	-0.146344	-0.0922309	-0.178554
167    	0.1336000	-0.0957741	-0.128628	-0.0348969	-0.100606	0.0891121	-0.174045	-0.110269	-0.214629
168    	0.1344000	-0.102216	-0.134748	-0.0258781	-0.10286	0.0868574	-0.178876	-0.124441	-0.249416
169    	0.1352000	-0.0973846	-0.139902	-0.0236234	-0.103504	0.0804154	-0.189506	-0.134104	-0.27454
170    	0.1360000	-0.0993172	-0.142479	-0.0226571	-0.105759	0.0733291	-0.196592	-0.146344	-0.295155
171    	0.1368000	-0.0980288	-0.148599	-0.0245897	-0.10737	0.0659208	-0.195625	-0.154719	-0.313515
172    	0.1376000	-0.0980288	-0.152142	-0.0229792	-0.110913	0.0598009	-0.194337	-0.163737	-0.325432
173    	0.1384000	-0.102216	-0.150531	-0.0239455	-0.114778	0.0472389	-0.189828	-0.169857	-0.326399
174    	0.1392000	-0.10125	-0.150853	-0.0220129	-0.112523	0.0491715	-0.181131	-0.166958	-0.327043
175    	0.1400000	-0.100283	-0.150531	-0.0242676	-0.117999	0.0433737	-0.174689	-0.16567	-0.319312
176    	0.1408000	-0.0960962	-0.150853	-0.0265223	-0.124763	0.0366096	-0.162771	-0.164704	-0.305462
177    	0.1416000	-0.0935194	-0.14731	-0.0262002	-0.117677	0.0366096	-0.150853	-0.150209	-0.286136
178    	0.1424000	-0.0951299	-0.146022	-0.0284549	-0.117677	0.0308118	-0.137003	-0.140224	-0.263267
179    	0.1432000	-0.0964183	-0.13958	-0.0303875	-0.114778	0.0295234	-0.119287	-0.130239	-0.234922
180    	0.1440000	-0.0919088	-0.137003	-0.0323201	-0.109624	0.0279129	-0.103182	-0.114456	-0.201101
181    	0.1448000	-0.0957741	-0.131849	-0.0307096	-0.109302	0.0266244	-0.0838563	-0.098673	-0.166314
182    	0.1456000	-0.0906204	-0.125729	-0.0339306	-0.104149	0.0298455	-0.0651744	-0.0809574	-0.12734
183    	0.1464000	-0.0925531	-0.119287	-0.0377958	-0.0877215	0.0288792	-0.0442378	-0.0645302	-0.0867552
184    	0.1472000	-0.0938415	-0.112523	-0.0394063	-0.0989951	0.0324223	-0.0239455	-0.0358632	-0.0458484
185    	0.1480000	-0.0931973	-0.106081	-0.0567998	-0.0944857	0.034677	-0.00622989	-0.0142824	0.00150054
186    	0.1488000	-0.0948078	-0.098673	-0.0452042	-0.0925531	0.0391864	0.015673	0.00536576	0.0459505
187    	0.1496000	-0.0919088	-0.0935194	-0.0487473	-0.0870773	0.0440179	0.034677	0.0237255	0.0913668
188    	0.1504000	-0.0925531	-0.0857889	-0.0522904	-0.0841784	0.0453063	0.0549694	0.0433737	0.133562
189    	0.1512000	-0.0944857	-0.0790248	-0.0561556	-0.0812795	0.0494936	0.0662429	0.0594788	0.178656
190    	0.1520000	-0.0928752	-0.0748375	-0.0567998	-0.0783806	0.0549694	0.0778386	0.0781607	0.210544
191    	0.1528000	-0.089332	-0.0703281	-0.0632418	-0.0783806	0.0594788	0.0875016	0.0926552	0.242432
192    	0.1536000	-0.0890099	-0.067107	-0.0622755	-0.0819237	0.066565	0.098453	0.10715	0.265624
