Scan Rate:  1250
Scans Per Frame:  10
Total Scans:  15510
ZP: 0 	 TP: 0
Number of Channels:  8
Scaled:  No
Scale Factor:     	1	1	1	1	1	1	1	1
Offset:           	0	0	0	0	0	0	0	0
Color:           	255,0,0	0,255,0	0,0,255	255,255,0	255,0,255	0,255,255	255,128,0	128,255,0
Label:            	Channel0	Channel1	Channel2	Channel3	Channel4	Channel5	Channel6	Channel7
Units:            	Volts	Volts	Volts	Volts	Volts	Volts	Volts	Volts
Index      Time   	Ch.00	Ch.01	Ch.02	Ch.03	Ch.04	Ch.05	Ch.06	Ch.07
0      	0.0000000	-0.101894	0.0153509	-0.186929	-0.0870773	0.0562578	-0.0526125	-0.019436	-0.0906204
1      	0.0008000	-0.0928752	0.0163172	-0.197236	-0.0880436	0.0581904	-0.0529346	-0.0168592	-0.0919088
2      	0.0016000	-0.0909425	0.0159951	-0.186285	-0.0873994	0.0607672	-0.0532567	-0.0187918	-0.0919088
3      	0.0024000	-0.0906204	0.0179277	-0.187251	-0.0906204	0.0614114	-0.0532567	-0.0175034	-0.0906204
4      	0.0032000	-0.0951299	0.0172835	-0.18564	-0.0890099	0.0681755	-0.0577661	-0.0149266	-0.0899762
5      	0.0040000	-0.0890099	0.0230813	-0.186929	-0.089332	0.0681755	-0.0587324	-0.0139603	-0.0867552
6      	0.0048000	-0.0890099	0.0179277	-0.187895	-0.0896541	0.0765502	-0.0600208	-0.0133161	-0.0845005
7      	0.0056000	-0.0902983	0.0176056	-0.189828	-0.0906204	0.0784828	-0.057444	-0.012994	-0.0812795
8      	0.0064000	-0.0909425	0.0185719	-0.191116	-0.0919088	0.0800933	-0.0555114	-0.00784039	-0.0809574
9      	0.0072000	-0.0922309	0.0169614	-0.193693	-0.0919088	0.0762281	-0.0558335	-0.0123498	-0.0783806
10     	0.0080000	-0.0938415	0.0159951	-0.192082	-0.0944857	0.0846027	-0.0539009	-0.0133161	-0.0774143
11     	0.0088000	-0.095452	0.0150288	-0.193371	-0.0941636	0.0813817	-0.054223	-0.0139603	-0.0761259
12     	0.0096000	-0.100928	0.0134183	-0.194337	-0.095452	0.0871795	-0.0522904	-0.0123498	-0.0754817
13     	0.0104000	-0.0941636	0.0121299	-0.194015	-0.0970625	0.0894342	-0.0526125	-0.0100951	-0.0745154
14     	0.0112000	-0.0938415	0.0127741	-0.195303	-0.0948078	0.0929773	-0.0539009	-0.0107393	-0.0719386
15     	0.0120000	-0.0960962	0.0127741	-0.196592	-0.0941636	0.0961983	-0.0535788	-0.009773	-0.0703281
16     	0.0128000	-0.0951299	0.0127741	-0.193371	-0.0964183	0.0987751	-0.0532567	-0.0100951	-0.0680733
17     	0.0136000	-0.0941636	0.0163172	-0.194337	-0.0938415	0.101996	-0.0516462	-0.0107393	-0.0677512
18     	0.0144000	-0.0922309	0.0153509	-0.193371	-0.0944857	0.105539	-0.0497136	-0.0117056	-0.0651744
19     	0.0152000	-0.0890099	0.0195382	-0.192727	-0.0960962	0.103929	-0.0503578	-0.0123498	-0.060665
20     	0.0160000	-0.0883657	0.0208266	-0.192727	-0.0922309	0.101996	-0.0474589	-0.0120277	-0.0564777
21     	0.0168000	-0.0951299	0.0227592	-0.190472	-0.0964183	0.10103	-0.0468147	-0.0100951	-0.054223
22     	0.0176000	-0.100928	0.0240476	-0.188861	-0.0964183	0.100064	-0.047781	-0.0110614	-0.0516462
23     	0.0184000	-0.0906204	0.0240476	-0.193049	-0.0922309	0.0997414	-0.0506799	-0.0084846	-0.0493915
24     	0.0192000	-0.0873994	0.0317781	-0.188539	-0.0886878	0.0965204	-0.0503578	-0.0081625	-0.0484252
25     	0.0200000	-0.0880436	0.0234034	-0.188217	-0.0890099	0.095232	-0.0535788	-0.00719619	-0.0487473
26     	0.0208000	-0.0880436	0.0259802	-0.19015	-0.0928752	0.0939436	-0.0564777	-0.00719619	-0.0500357
27     	0.0216000	-0.0886878	0.0224371	-0.190472	-0.0886878	0.0910447	-0.0545451	-0.00784039	-0.0513241
28     	0.0224000	-0.0873994	0.0205045	-0.191438	-0.0899762	0.0884679	-0.0503578	-0.0091288	-0.0532567
29     	0.0232000	-0.0902983	0.0201824	-0.189828	-0.0912646	0.0862132	-0.0497136	-0.00751829	-0.0567998
30     	0.0240000	-0.0906204	0.0285571	-0.19176	-0.0902983	0.0875016	-0.0468147	-0.00687409	-0.0590545
31     	0.0248000	-0.0902983	0.0179277	-0.192082	-0.0838563	0.0852469	-0.0439157	-0.00751829	-0.0629197
32     	0.0256000	-0.0928752	0.0179277	-0.190472	-0.0957741	0.0826701	-0.0455263	-0.00719619	-0.0645302
33     	0.0264000	-0.0909425	0.0169614	-0.19015	-0.0922309	0.0797712	-0.0445599	-0.0110614	-0.0680733
34     	0.0272000	-0.0896541	0.0179277	-0.189183	-0.0922309	0.0771944	-0.0445599	-0.0081625	-0.0787027
35     	0.0280000	-0.0896541	0.0163172	-0.188861	-0.0928752	0.0775165	-0.0435936	-0.00719619	-0.0735491
36     	0.0288000	-0.0919088	0.0176056	-0.189183	-0.0922309	0.0736512	-0.0423052	-0.0091288	-0.0754817
37     	0.0296000	-0.0870773	0.0159951	-0.187251	-0.0948078	0.0713965	-0.0394063	-0.00655199	-0.079669
38     	0.0304000	-0.0848226	0.0179277	-0.187895	-0.0915867	0.0672092	-0.03844	-0.00719619	-0.0803132
39     	0.0312000	-0.0873994	0.0166393	-0.184996	-0.0931973	0.0646324	-0.0406947	-0.0084846	-0.0819237
40     	0.0320000	-0.0877215	0.0147067	-0.186607	-0.0935194	0.066565	-0.0406947	-0.0081625	-0.086111
41     	0.0328000	-0.0906204	0.0159951	-0.185318	-0.0964183	0.0636661	-0.0410168	-0.009773	-0.0899762
42     	0.0336000	-0.0880436	0.0150288	-0.188539	-0.0919088	0.0636661	-0.0458484	-0.0088067	-0.0935194
43     	0.0344000	-0.0919088	0.0169614	-0.187573	-0.0935194	0.0617335	-0.044882	-0.0133161	-0.0948078
44     	0.0352000	-0.0931973	0.0192161	-0.188861	-0.0883657	0.0668871	-0.0497136	-0.0142824	-0.0964183
45     	0.0360000	-0.0941636	0.0134183	-0.183708	-0.089332	0.060123	-0.0484252	-0.0142824	-0.0980288
46     	0.0368000	-0.0957741	0.0127741	-0.191116	-0.0902983	0.0620556	-0.0503578	-0.0120277	-0.0983509
47     	0.0376000	-0.0957741	0.0111636	-0.189506	-0.0909425	0.0591567	-0.0503578	-0.0146045	-0.0996393
48     	0.0384000	-0.0944857	0.0130962	-0.190794	-0.0902983	0.0620556	-0.0503578	-0.0158929	-0.0973846
49     	0.0392000	-0.0957741	0.0137404	-0.190472	-0.0915867	0.063344	-0.0490694	-0.0184697	-0.0964183
50     	0.0400000	-0.098673	0.0147067	-0.189828	-0.0922309	0.0646324	-0.0490694	-0.0213687	-0.0935194
51     	0.0408000	-0.0993172	0.0166393	-0.19015	-0.0941636	0.0643103	-0.0506799	-0.0245897	-0.089332
52     	0.0416000	-0.0948078	0.0150288	-0.191438	-0.0928752	0.0620556	-0.0532567	-0.0226571	-0.0848226
53     	0.0424000	-0.0928752	0.0163172	-0.194015	-0.0925531	0.0681755	-0.0535788	-0.0236234	-0.0787027
54     	0.0432000	-0.0915867	0.018894	-0.192082	-0.0925531	0.0710744	-0.0500357	-0.025556	-0.0751596
55     	0.0440000	-0.0902983	0.018894	-0.19176	-0.0890099	0.073007	-0.0522904	-0.0262002	-0.0709723
56     	0.0448000	-0.0912646	0.0224371	-0.193049	-0.0919088	0.0768723	-0.0497136	-0.0268444	-0.0680733
57     	0.0456000	-0.0902983	0.0201824	-0.193371	-0.0896541	0.0804154	-0.0490694	-0.0274886	-0.063886
58     	0.0464000	-0.0906204	0.022115	-0.190794	-0.0890099	0.0839585	-0.0484252	-0.0278107	-0.0625976
59     	0.0472000	-0.0909425	0.022115	-0.192727	-0.0877215	0.0852469	-0.054223	-0.0258781	-0.0616313
60     	0.0480000	-0.0925531	0.0227592	-0.19176	-0.0867552	0.085569	-0.0471368	-0.0236234	-0.0616313
61     	0.0488000	-0.0912646	0.0230813	-0.19015	-0.0854668	0.0865353	-0.0468147	-0.022335	-0.0616313
62     	0.0496000	-0.0902983	0.0230813	-0.189828	-0.0851447	0.0858911	-0.0461705	-0.0181476	-0.0622755
63     	0.0504000	-0.0902983	0.0256581	-0.190794	-0.0832121	0.085569	-0.0458484	-0.0136382	-0.0687175
64     	0.0512000	-0.0909425	0.0263023	-0.187573	-0.0848226	0.0865353	-0.0474589	-0.0081625	-0.0651744
65     	0.0520000	-0.0890099	0.0250139	-0.189506	-0.0864331	0.0894342	-0.0413389	-0.00365308	-0.0651744
66     	0.0528000	-0.0883657	0.0256581	-0.190794	-0.0857889	0.0891121	-0.0493915	0.00053424	-0.063886
67     	0.0536000	-0.0906204	0.0285571	-0.188217	-0.0845005	0.0913668	-0.0490694	0.00343315	-0.0603429
68     	0.0544000	-0.0890099	0.0259802	-0.189506	-0.0877215	0.0926552	-0.0487473	0.00246685	-0.0590545
69     	0.0552000	-0.0906204	0.0230813	-0.19015	-0.0899762	0.0926552	-0.0503578	-0.000109962	-0.0558335
70     	0.0560000	-0.089332	0.0227592	-0.192082	-0.086111	0.0900784	-0.0564777	0.000212139	-0.0529346
71     	0.0568000	-0.089332	0.0214708	-0.189506	-0.0870773	0.0907226	-0.051002	-0.00107627	-0.0500357
72     	0.0576000	-0.0906204	0.0382201	-0.192727	-0.089332	0.0788049	-0.0471368	-0.00204257	-0.0564777
73     	0.0584000	-0.0915867	0.0214708	-0.192082	-0.0919088	0.0871795	-0.0493915	-0.00494148	-0.0529346
74     	0.0592000	-0.0912646	0.0198603	-0.189828	-0.0925531	0.0833143	-0.0526125	-0.00751829	-0.0561556
75     	0.0600000	-0.0890099	0.0172835	-0.198202	-0.0938415	0.0804154	-0.044882	-0.009773	-0.0600208
76     	0.0608000	-0.0951299	0.0182498	-0.195303	-0.0928752	0.0768723	-0.0455263	-0.0123498	-0.0648523
77     	0.0616000	-0.0938415	0.0147067	-0.194015	-0.095452	0.0726849	-0.0471368	-0.0126719	-0.0703281
78     	0.0624000	-0.0948078	0.0127741	-0.193371	-0.0964183	0.069786	-0.0439157	-0.0133161	-0.073227
79     	0.0632000	-0.0938415	0.012452	-0.194337	-0.0973846	0.066565	-0.0432715	-0.0158929	-0.0758038
80     	0.0640000	-0.0951299	0.012452	-0.195303	-0.0951299	0.0655987	-0.0419831	-0.0187918	-0.0770922
81     	0.0648000	-0.0931973	0.0118078	-0.193371	-0.0960962	0.0662429	-0.0400505	-0.019436	-0.0806353
82     	0.0656000	-0.0928752	0.0130962	-0.190472	-0.0941636	0.0630219	-0.0419831	-0.0216908	-0.0825679
83     	0.0664000	-0.0931973	0.0108415	-0.190472	-0.0960962	0.0620556	-0.0413389	-0.0216908	-0.0857889
84     	0.0672000	-0.0919088	0.0127741	-0.186929	-0.095452	0.0659208	-0.0432715	-0.0220129	-0.0851447
85     	0.0680000	-0.0928752	0.0105194	-0.189828	-0.100606	0.063344	-0.0423052	-0.019436	-0.0886878
86     	0.0688000	-0.0896541	0.00633206	-0.188539	-0.0941636	0.0556136	-0.044882	-0.019436	-0.095452
87     	0.0696000	-0.0883657	0.0127741	-0.184352	-0.0948078	0.0668871	-0.0442378	-0.0146045	-0.0925531
88     	0.0704000	-0.0848226	0.0153509	-0.189183	-0.0941636	0.066565	-0.0493915	-0.0139603	-0.095452
89     	0.0712000	-0.0883657	0.0163172	-0.181775	-0.0935194	0.0672092	-0.0487473	-0.009773	-0.0886878
90     	0.0720000	-0.0877215	0.0143846	-0.187895	-0.0922309	0.0688197	-0.0490694	-0.0171813	-0.0857889
91     	0.0728000	-0.0886878	0.0127741	-0.187251	-0.0919088	0.0672092	-0.0503578	-0.0165371	-0.0832121
92     	0.0736000	-0.0902983	0.0121299	-0.187895	-0.0931973	0.0710744	-0.0493915	-0.0187918	-0.0835342
93     	0.0744000	-0.0919088	0.0169614	-0.191116	-0.0951299	0.0710744	-0.047781	-0.0204023	-0.08289
94     	0.0752000	-0.0774143	0.0166393	-0.19015	-0.0767701	0.0742954	-0.0458484	-0.0197581	-0.0845005
95     	0.0760000	-0.0909425	0.0172835	-0.185962	-0.0928752	0.0775165	-0.0461705	-0.0220129	-0.0819237
96     	0.0768000	-0.0896541	0.0201824	-0.189506	-0.0922309	0.0813817	-0.0439157	-0.0213687	-0.0809574
97     	0.0776000	-0.0899762	0.015673	-0.185962	-0.0931973	0.0778386	-0.0413389	-0.0210465	-0.079669
98     	0.0784000	-0.0886878	0.0192161	-0.188539	-0.0931973	0.0817038	-0.0439157	-0.0229792	-0.0777364
99     	0.0792000	-0.089332	0.0185719	-0.189183	-0.0912646	0.082348	-0.0452042	-0.0204023	-0.076448
100    	0.0800000	-0.0906204	0.0185719	-0.189828	-0.0931973	0.0852469	-0.0516462	-0.0191139	-0.0751596
101    	0.0808000	-0.0912646	0.0192161	-0.18564	-0.0922309	0.0910447	-0.051002	-0.0226571	-0.0770922
102    	0.0816000	-0.0886878	0.0182498	-0.189183	-0.0845005	0.0910447	-0.0519683	-0.0207244	-0.0751596
103    	0.0824000	-0.0902983	0.0208266	-0.189506	-0.0877215	0.095232	-0.0561556	-0.016215	-0.076448
104    	0.0832000	-0.0902983	0.0211487	-0.192727	-0.0809574	0.0978088	-0.054223	-0.016215	-0.0735491
105    	0.0840000	-0.0909425	0.0246918	-0.189828	-0.0870773	0.0987751	-0.054223	-0.0165371	-0.0683954
106    	0.0848000	-0.0886878	0.0234034	-0.175333	-0.0864331	0.0978088	-0.0452042	-0.0133161	-0.0690397
107    	0.0856000	-0.089332	0.0250139	-0.188539	-0.0873994	0.0971646	-0.0535788	-0.0136382	-0.0635639
108    	0.0864000	-0.089332	0.025336	-0.189183	-0.0873994	0.095232	-0.0577661	-0.0117056	-0.0590545
109    	0.0872000	-0.0909425	0.0234034	-0.19015	-0.0857889	0.0949099	-0.0564777	-0.0081625	-0.0567998
110    	0.0880000	-0.0912646	0.0234034	-0.189506	-0.086111	0.0945878	-0.054223	-0.00719619	-0.051002
111    	0.0888000	-0.0928752	0.0240476	-0.190472	-0.0873994	0.0932994	-0.0567998	-0.00558569	-0.0497136
112    	0.0896000	-0.0912646	0.0234034	-0.187251	-0.0883657	0.0913668	-0.054223	-0.00494148	-0.0503578
113    	0.0904000	-0.0915867	0.0214708	-0.191116	-0.0886878	0.0900784	-0.0539009	-0.00268677	-0.0497136
114    	0.0912000	-0.0948078	0.0169614	-0.194015	-0.0877215	0.0884679	-0.0526125	-0.00558569	-0.0458484
115    	0.0920000	-0.0922309	0.0205045	-0.192727	-0.0909425	0.0878237	-0.0529346	-0.00461938	-0.0506799
116    	0.0928000	-0.0919088	0.0192161	-0.193049	-0.0902983	0.0849248	-0.0526125	-0.00558569	-0.0516462
117    	0.0936000	-0.0935194	0.0198603	-0.193693	-0.100283	0.082348	-0.0522904	-0.00300887	-0.0526125
118    	0.0944000	-0.0957741	0.0176056	-0.187573	-0.0915867	0.0771944	-0.0516462	-0.0088067	-0.0548672
119    	0.0952000	-0.0944857	0.018894	-0.194337	-0.0919088	0.0771944	-0.051002	-0.00687409	-0.0513241
120    	0.0960000	-0.0944857	0.015673	-0.194981	-0.0931973	0.0726849	-0.0503578	-0.00429728	-0.0619534
121    	0.0968000	-0.0941636	0.0195382	-0.195625	-0.0922309	0.0688197	-0.0471368	-0.00268677	-0.0645302
122    	0.0976000	-0.0919088	0.0143846	-0.195625	-0.0944857	0.0681755	-0.0461705	0.00278895	-0.0693618
123    	0.0984000	-0.0931973	0.0150288	-0.194337	-0.0960962	0.0652766	-0.0435936	0.00311105	-0.0722607
124    	0.0992000	-0.0919088	0.0163172	-0.193371	-0.0915867	0.0649545	-0.0429494	0.00214475	-0.076448
125    	0.1000000	-0.0935194	0.0166393	-0.204	-0.0915867	0.0626998	-0.0484252	-0.000432064	-0.0799911
126    	0.1008000	-0.095452	0.0159951	-0.191438	-0.0922309	0.0630219	-0.0419831	-0.00204257	-0.0799911
127    	0.1016000	-0.0931973	0.0137404	-0.191438	-0.0902983	0.0604451	-0.041661	-0.00172047	-0.0761259
128    	0.1024000	-0.0931973	0.0182498	-0.193371	-0.0877215	0.0620556	-0.0403726	-0.0091288	-0.0809574
129    	0.1032000	-0.0928752	0.0198603	-0.191116	-0.0886878	0.0614114	-0.0426273	-0.00429728	-0.0819237
130    	0.1040000	-0.0931973	0.0159951	-0.19015	-0.0880436	0.0639882	-0.0455263	-0.00236467	-0.0838563
131    	0.1048000	-0.0925531	0.0182498	-0.188861	-0.0822458	0.0643103	-0.0487473	-0.00139837	-0.0841784
132    	0.1056000	-0.0973846	0.0172835	-0.188539	-0.0864331	0.0623777	-0.0519683	-0.00172047	-0.0848226
133    	0.1064000	-0.0944857	0.0150288	-0.189506	-0.0880436	0.0636661	-0.0555114	-0.00461938	-0.0819237
134    	0.1072000	-0.0967404	0.0163172	-0.189506	-0.0890099	0.0655987	-0.0580882	-0.00622989	-0.0806353
135    	0.1080000	-0.0938415	0.0182498	-0.190794	-0.0870773	0.0678534	-0.0609871	-0.0104172	-0.0799911
136    	0.1088000	-0.0973846	0.0134183	-0.19015	-0.086111	0.0701081	-0.0616313	-0.00687409	-0.0793469
137    	0.1096000	-0.0935194	0.0147067	-0.19176	-0.0919088	0.0765502	-0.0625976	-0.0107393	-0.0783806
138    	0.1104000	-0.0944857	0.0159951	-0.191438	-0.0912646	0.0775165	-0.0625976	-0.00719619	-0.0803132
139    	0.1112000	-0.0931973	0.0208266	-0.192404	-0.0922309	0.0810596	-0.0642081	-0.0123498	-0.0793469
140    	0.1120000	-0.0919088	0.0172835	-0.193693	-0.0931973	0.0842806	-0.060665	-0.0107393	-0.0754817
141    	0.1128000	-0.0928752	0.0159951	-0.193693	-0.0925531	0.0817038	-0.0619534	-0.0146045	-0.0719386
142    	0.1136000	-0.0915867	0.0150288	-0.19176	-0.0938415	0.0862132	-0.0616313	-0.0139603	-0.0683954
143    	0.1144000	-0.0870773	0.0147067	-0.192404	-0.0935194	0.0871795	-0.0600208	-0.0136382	-0.0616313
144    	0.1152000	-0.089332	0.0130962	-0.188861	-0.0925531	0.0884679	-0.0635639	-0.0139603	-0.0648523
145    	0.1160000	-0.0906204	0.0153509	-0.194659	-0.100606	0.0932994	-0.0613092	-0.0178255	-0.0613092
146    	0.1168000	-0.0915867	0.0185719	-0.187251	-0.0925531	0.0981309	-0.0600208	-0.0117056	-0.0593766
147    	0.1176000	-0.0912646	0.018894	-0.188861	-0.0912646	0.0981309	-0.0564777	-0.0084846	-0.0567998
148    	0.1184000	-0.0880436	0.0172835	-0.188539	-0.0906204	0.0945878	-0.0564777	-0.00784039	-0.0558335
149    	0.1192000	-0.089332	0.0211487	-0.190472	-0.0899762	0.0939436	-0.0561556	-0.00687409	-0.054223
150    	0.1200000	-0.086111	0.0217929	-0.191116	-0.0899762	0.0923331	-0.0561556	-0.00687409	-0.0532567
151    	0.1208000	-0.0886878	0.0217929	-0.188539	-0.0906204	0.0916889	-0.0555114	0.00343315	-0.054223
152    	0.1216000	-0.086111	0.0111636	-0.189183	-0.0906204	0.0926552	-0.0558335	-0.000754165	-0.0558335
153    	0.1224000	-0.0877215	0.0250139	-0.190472	-0.0890099	0.0904005	-0.0513241	0.00214475	-0.0564777
154    	0.1232000	-0.0883657	0.0227592	-0.197236	-0.0890099	0.0910447	-0.0461705	0.00472156	-0.0603429
155    	0.1240000	-0.0787027	0.0234034	-0.190794	-0.0896541	0.0878237	-0.0493915	0.00794257	-0.0619534
156    	0.1248000	-0.0864331	0.0234034	-0.189183	-0.0886878	0.0871795	-0.0474589	0.00568786	-0.0706502
157    	0.1256000	-0.0870773	0.022115	-0.189183	-0.0906204	0.0875016	-0.0397284	0.00633206	-0.0642081
158    	0.1264000	-0.0877215	0.0137404	-0.191116	-0.0915867	0.085569	-0.0397284	0.00375525	-0.0619534
159    	0.1272000	-0.0883657	0.0182498	-0.188861	-0.0922309	0.082348	-0.0390842	0.00439946	-0.063886
160    	0.1280000	-0.0867552	0.0182498	-0.19015	-0.0931973	0.0800933	-0.0403726	0.00053424	-0.0648523
161    	0.1288000	-0.086111	0.0172835	-0.192082	-0.0941636	0.0775165	-0.0381179	-0.00107627	-0.0677512
162    	0.1296000	-0.0890099	0.0150288	-0.190472	-0.095452	0.0768723	-0.0394063	-0.00268677	-0.0703281
163    	0.1304000	-0.0906204	0.015673	-0.194015	-0.0941636	0.0710744	-0.0365074	-0.00558569	-0.0712944
164    	0.1312000	-0.0935194	0.0130962	-0.19176	-0.0951299	0.0713965	-0.0348969	-0.00622989	-0.0729049
165    	0.1320000	-0.0899762	0.0130962	-0.193371	-0.0964183	0.0707523	-0.0358632	-0.00429728	-0.0735491
166    	0.1328000	-0.0902983	0.0130962	-0.193049	-0.0938415	0.0710744	-0.0332864	-0.00558569	-0.0787027
167    	0.1336000	-0.0902983	0.0179277	-0.189183	-0.0970625	0.0713965	-0.0329643	-0.00236467	-0.0751596
168    	0.1344000	-0.0935194	0.0182498	-0.192404	-0.0964183	0.069786	-0.0339306	-0.00139837	-0.0748375
169    	0.1352000	-0.0941636	0.0121299	-0.192082	-0.0902983	0.0681755	-0.035219	-0.000754165	-0.073227
170    	0.1360000	-0.0931973	0.0134183	-0.189828	-0.0948078	0.0694639	-0.0368295	-0.00204257	-0.0738712
171    	0.1368000	-0.0922309	0.0127741	-0.191438	-0.0935194	0.0668871	-0.0374737	-0.00333098	-0.0767701
172    	0.1376000	-0.0941636	0.0134183	-0.19176	-0.0925531	0.0723628	-0.0390842	-0.00526358	-0.0806353
173    	0.1384000	-0.0935194	0.0111636	-0.191116	-0.0928752	0.0701081	-0.0429494	-0.00622989	-0.0809574
174    	0.1392000	-0.0822458	0.0134183	-0.189828	-0.0899762	0.0675313	-0.041661	-0.00784039	-0.0835342
175    	0.1400000	-0.0960962	0.0150288	-0.192082	-0.0906204	0.0652766	-0.0442378	-0.0091288	-0.0819237
176    	0.1408000	-0.0948078	0.0130962	-0.195948	-0.089332	0.0691418	-0.0426273	-0.0091288	-0.0835342
177    	0.1416000	-0.0886878	0.0153509	-0.19176	-0.0915867	0.0672092	-0.0481031	-0.0088067	-0.08289
178    	0.1424000	-0.0935194	0.0163172	-0.194659	-0.0864331	0.0694639	-0.0526125	-0.0123498	-0.0825679
179    	0.1432000	-0.0944857	0.0179277	-0.192082	-0.0883657	0.0723628	-0.047781	-0.0139603	-0.0825679
180    	0.1440000	-0.0931973	0.0176056	-0.193371	-0.0873994	0.0749396	-0.0497136	-0.016215	-0.08289
181    	0.1448000	-0.0944857	0.0198603	-0.192404	-0.0864331	0.0784828	-0.0526125	-0.0200802	-0.0793469
182    	0.1456000	-0.0935194	0.0198603	-0.192727	-0.0886878	0.0804154	-0.0526125	-0.0249118	-0.0822458
183    	0.1464000	-0.0928752	0.0208266	-0.197558	-0.0880436	0.0836364	-0.0561556	-0.0249118	-0.0812795
184    	0.1472000	-0.0960962	0.0205045	-0.191116	-0.0919088	0.08879	-0.0571219	-0.0181476	-0.079669
185    	0.1480000	-0.0915867	0.0230813	-0.192404	-0.0886878	0.0939436	-0.0577661	-0.0252339	-0.0783806
186    	0.1488000	-0.0880436	0.0217929	-0.189828	-0.0883657	0.0904005	-0.0590545	-0.0220129	-0.0758038
187    	0.1496000	-0.0870773	0.0240476	-0.192082	-0.0938415	0.0949099	-0.0596987	-0.0200802	-0.0738712
